Time Stamp,ID,Extended,Dir,Bus,LEN,D1,D2,D3,D4,D5,D6,D7,D8,
141645413,000005EB,false,Rx,1,8,00,3F,09,01,00,00,00,01,
141645669,000005E9,false,Rx,1,8,00,3F,09,01,00,00,00,01,
141646216,000005E7,false,Rx,1,8,00,3F,09,01,00,00,00,01,
141771320,0000021B,false,Rx,1,8,00,00,00,00,6F,02,00,04,
141771575,00000219,false,Rx,1,8,00,C0,7F,00,70,02,00,04,
141772115,00000217,false,Rx,1,8,00,C0,7F,00,6F,02,00,04,
141838923,0000045C,false,Rx,1,8,00,00,09,3E,00,00,00,00,
141847090,0000042C,false,Rx,1,8,00,60,00,00,20,01,00,00,
141847336,0000043C,false,Rx,1,8,00,60,00,00,20,01,00,00,
141847585,0000044C,false,Rx,1,8,00,60,00,00,20,01,00,00,
141857127,0000042C,false,Rx,1,8,00,60,00,00,20,00,00,00,
141857374,0000043C,false,Rx,1,8,00,60,00,00,20,00,00,00,
141857622,0000044C,false,Rx,1,8,00,60,00,00,20,00,00,00,
141938731,0000045C,false,Rx,1,8,00,00,09,3E,00,00,00,00,
141938865,0000010C,false,Rx,1,2,01,00,00,00,00,00,00,00,
141957136,0000042C,false,Rx,1,8,00,60,00,00,20,00,00,00,
141957383,0000043C,false,Rx,1,8,00,60,00,00,20,00,00,00,
141957631,0000044C,false,Rx,1,8,00,60,00,00,20,00,00,00,
141981182,000005E7,false,Rx,1,8,00,3F,09,01,00,00,00,01,
142038729,0000045C,false,Rx,1,8,00,00,09,3E,00,00,00,00,
142057136,0000042C,false,Rx,1,8,00,60,00,00,20,00,00,00,
142057384,0000043C,false,Rx,1,8,00,60,00,00,20,00,00,00,
142057631,0000044C,false,Rx,1,8,00,60,00,00,20,00,00,00,
142081628,000005E9,false,Rx,1,8,00,3F,09,01,00,00,00,01,
142107087,00000217,false,Rx,1,8,00,C0,7F,00,6F,02,00,04,
142138730,0000045C,false,Rx,1,8,00,00,09,3E,00,00,00,00,
142138864,0000010C,false,Rx,1,2,02,00,00,00,00,00,00,00,
142139013,00000547,false,Rx,1,2,02,FF,00,00,00,00,00,00,
142157142,0000042C,false,Rx,1,8,00,60,00,00,20,00,00,00,
142157388,0000043C,false,Rx,1,8,00,60,00,00,20,00,00,00,
142157636,0000044C,false,Rx,1,8,00,60,00,00,20,00,00,00,
142182413,000005EB,false,Rx,1,8,00,3F,09,01,00,00,00,01,
142197452,00000207,false,Rx,1,8,00,01,40,00,00,04,04,00,
142197691,00000227,false,Rx,1,8,0E,02,B5,00,F9,00,3A,B8,
142197933,00000237,false,Rx,1,8,3D,41,00,17,00,00,00,00,
142198180,00000247,false,Rx,1,8,00,7D,89,03,00,00,26,00,
142198420,00000717,false,Rx,1,8,02,00,00,00,00,00,00,00,
142207261,00000217,false,Rx,1,8,00,C0,7F,00,80,02,00,04,
142207537,00000219,false,Rx,1,8,00,C0,7F,00,71,02,00,04,
142238727,0000045C,false,Rx,1,8,00,00,09,3E,00,00,00,00,
142257134,0000042C,false,Rx,1,8,00,60,00,00,20,00,00,00,
142257381,0000043C,false,Rx,1,8,00,60,00,00,20,00,00,00,
142257628,0000044C,false,Rx,1,8,00,60,00,00,20,00,00,00,
142297434,00000207,false,Rx,1,8,00,01,40,00,68,07,14,00,
142297667,00000227,false,Rx,1,8,0C,02,BC,00,04,01,3A,B8,
142297907,00000237,false,Rx,1,8,3D,41,00,17,00,00,00,00,
142298162,00000209,false,Rx,1,8,00,00,00,00,00,04,04,00,
142298388,00000229,false,Rx,1,8,08,02,9C,00,1D,01,3A,B8,
142298635,00000239,false,Rx,1,8,3E,41,00,17,00,00,00,00,
142298868,00000247,false,Rx,1,8,66,7D,89,03,00,00,26,00,
142299108,00000249,false,Rx,1,8,00,7D,89,03,00,00,26,00,
142299357,00000719,false,Rx,1,8,02,00,00,00,00,00,00,00,
142307222,00000217,false,Rx,1,8,00,C0,7F,00,80,02,00,04,
142307726,00000219,false,Rx,1,8,00,C0,7F,00,82,02,00,04,
142308325,0000021B,false,Rx,1,8,00,00,00,00,6F,02,00,04,
142338722,0000045C,false,Rx,1,8,00,00,09,3E,00,00,00,00,
142338849,0000010C,false,Rx,1,2,03,00,00,00,00,00,00,00,
142339005,00000549,false,Rx,1,2,03,FF,00,00,00,00,00,00,
142339140,00000547,false,Rx,1,2,03,FF,00,00,00,00,00,00,
142339274,0000054B,false,Rx,1,2,03,FF,00,00,00,00,00,00,
142357137,0000042C,false,Rx,1,8,00,60,00,00,20,00,00,00,
142357383,0000043C,false,Rx,1,8,00,60,00,00,20,00,00,00,
142357632,0000044C,false,Rx,1,8,00,60,00,00,20,00,00,00,
142397431,00000207,false,Rx,1,8,00,01,40,00,68,07,14,00,
142397665,00000227,false,Rx,1,8,14,02,AB,00,DA,00,3A,B8,
142397904,00000209,false,Rx,1,8,00,00,00,00,68,07,14,00,
142398144,00000229,false,Rx,1,8,12,02,A0,00,16,01,3A,B8,
142398385,00000237,false,Rx,1,8,3D,41,00,17,00,00,00,00,
142398633,00000239,false,Rx,1,8,3E,41,00,17,00,00,00,00,
142398881,0000020B,false,Rx,1,8,00,01,80,FF,00,04,04,00,
142399115,0000022B,false,Rx,1,8,F3,01,99,00,1F,01,3A,B8,
142399354,0000023B,false,Rx,1,8,3D,41,00,17,00,00,00,00,
142399593,00000247,false,Rx,1,8,66,7D,89,03,00,00,26,00,
142399828,00000249,false,Rx,1,8,66,7D,89,03,00,00,26,00,
142400068,0000024B,false,Rx,1,8,00,7D,89,03,00,00,26,00,
142400307,00000717,false,Rx,1,8,04,00,00,00,0D,09,1A,00,
142400556,0000071B,false,Rx,1,8,02,00,00,00,00,00,00,00,
142407228,00000217,false,Rx,1,8,00,80,7F,00,80,02,00,04,
142407693,00000219,false,Rx,1,8,00,C0,7F,00,82,02,00,04,
142408510,0000021B,false,Rx,1,8,00,00,00,00,7E,02,00,04,
142438724,0000045C,false,Rx,1,8,00,00,09,3E,00,00,00,00,
142457140,0000042C,false,Rx,1,8,00,60,00,00,20,00,00,00,
142457380,0000043C,false,Rx,1,8,00,60,00,00,20,00,00,00,
142457635,0000044C,false,Rx,1,8,00,60,00,00,20,00,00,00,
142497387,00000207,false,Rx,1,8,00,01,40,00,68,07,14,00,
142497625,00000227,false,Rx,1,8,1C,02,B0,00,CD,00,3A,B8,
142497874,00000237,false,Rx,1,8,3D,41,00,17,00,00,00,00,
142498115,00000209,false,Rx,1,8,00,00,00,00,68,07,14,00,
142498347,00000229,false,Rx,1,8,21,02,9B,00,F4,00,3A,B8,
142498587,00000239,false,Rx,1,8,3E,41,00,17,00,00,00,00,
142498828,0000020B,false,Rx,1,8,00,01,80,FF,68,07,14,00,
142499069,0000022B,false,Rx,1,8,FF,01,9D,00,08,01,3A,B8,
142499316,0000023B,false,Rx,1,8,3D,41,00,17,00,00,00,00,
142499548,00000247,false,Rx,1,8,66,7D,89,03,00,00,26,00,
142499782,00000249,false,Rx,1,8,66,7D,89,03,00,00,26,00,
142500022,0000024B,false,Rx,1,8,66,7D,89,03,00,00,26,00,
142500262,00000717,false,Rx,1,8,05,00,00,00,00,00,00,00,
142500503,00000719,false,Rx,1,8,04,00,00,00,0D,09,08,00,
142507182,00000217,false,Rx,1,8,00,80,7F,00,80,02,00,04,
142507693,00000219,false,Rx,1,8,00,C0,7F,00,82,02,00,04,
142508480,0000021B,false,Rx,1,8,00,00,00,00,7E,02,00,04,
142538721,0000045C,false,Rx,1,8,00,00,09,3E,00,00,00,00,
142538857,0000010C,false,Rx,1,2,04,00,00,00,00,00,00,00,
142539013,00000547,false,Rx,1,2,04,FF,00,00,00,00,00,00,
142539147,00000549,false,Rx,1,2,04,FF,00,00,00,00,00,00,
142539273,0000054B,false,Rx,1,2,04,FF,00,00,00,00,00,00,
142557136,0000042C,false,Rx,1,8,00,60,00,00,20,00,00,00,
142557384,0000043C,false,Rx,1,8,00,60,00,00,20,00,00,00,
142557631,0000044C,false,Rx,1,8,00,60,00,00,20,00,00,00,
142597361,00000207,false,Rx,1,8,00,01,40,00,68,05,14,00,
142597593,00000227,false,Rx,1,8,2E,02,B6,00,B3,00,3A,B8,
142597841,00000237,false,Rx,1,8,3D,41,00,17,00,00,00,00,
142598082,00000209,false,Rx,1,8,00,00,00,00,68,07,14,00,
142598322,00000229,false,Rx,1,8,2B,02,A8,00,D6,00,3A,B8,
142598562,00000239,false,Rx,1,8,3E,41,00,17,00,00,00,00,
142598805,0000020B,false,Rx,1,8,00,01,80,FF,68,07,14,00,
142599037,0000022B,false,Rx,1,8,0C,02,94,00,EA,00,3A,B8,
142599284,0000023B,false,Rx,1,8,3D,41,00,17,00,00,00,00,
142599517,00000247,false,Rx,1,8,66,7D,89,03,00,00,26,00,
142599751,00000249,false,Rx,1,8,66,7D,89,03,00,00,26,00,
142599991,0000024B,false,Rx,1,8,66,7D,89,03,00,00,26,00,
142600232,00000717,false,Rx,1,8,06,00,C5,38,00,08,00,40,
142600472,00000719,false,Rx,1,8,05,00,00,00,00,00,00,00,
142600714,0000071B,false,Rx,1,8,04,00,00,00,0D,09,0C,00,
142607158,00000217,false,Rx,1,8,00,80,7F,00,80,02,00,04,
142607651,00000219,false,Rx,1,8,00,C0,7F,00,82,02,00,04,
142608476,0000021B,false,Rx,1,8,00,00,00,00,7E,02,00,04,
142638717,0000045C,false,Rx,1,8,00,00,09,3E,00,00,00,00,
142657140,0000042C,false,Rx,1,8,00,60,00,00,20,00,00,00,
142657379,0000043C,false,Rx,1,8,00,60,00,00,20,00,00,00,
142657634,0000044C,false,Rx,1,8,00,60,00,00,20,00,00,00,
142697366,00000207,false,Rx,1,8,00,01,40,00,68,05,14,00,
142697597,00000227,false,Rx,1,8,34,02,B5,00,9F,00,3A,B8,
142697847,00000209,false,Rx,1,8,00,00,00,00,68,05,14,00,
142698079,00000229,false,Rx,1,8,2D,02,98,00,CD,00,3A,B8,
142698327,00000237,false,Rx,1,8,3D,41,00,17,00,00,00,00,
142698568,00000239,false,Rx,1,8,3E,41,00,17,00,00,00,00,
142698809,0000020B,false,Rx,1,8,00,01,C0,FF,68,05,14,00,
142699049,0000022B,false,Rx,1,8,11,02,9A,00,F9,00,3A,B8,
142699297,0000023B,false,Rx,1,8,3D,41,00,17,00,00,00,00,
142699528,00000247,false,Rx,1,8,66,7D,89,03,00,00,26,00,
142699769,00000249,false,Rx,1,8,66,7D,89,03,00,00,26,00,
142700002,0000024B,false,Rx,1,8,66,7D,89,03,00,00,26,00,
142700243,00000717,false,Rx,1,8,07,00,00,00,02,25,00,00,
142700483,00000719,false,Rx,1,8,06,00,89,39,00,08,00,40,
142700723,0000071B,false,Rx,1,8,05,00,00,00,00,00,00,00,
142707152,00000217,false,Rx,1,8,00,80,7F,00,80,02,00,04,
142707623,00000219,false,Rx,1,8,00,C0,7F,00,82,02,00,04,
142708426,0000021B,false,Rx,1,8,00,00,00,00,7E,02,00,04,
142738725,0000045C,false,Rx,1,8,00,00,09,3E,00,00,00,00,
142738852,0000010C,false,Rx,1,2,05,00,00,00,00,00,00,00,
142739008,00000547,false,Rx,1,2,05,FF,00,00,00,00,00,00,
142739142,00000549,false,Rx,1,2,05,FF,00,00,00,00,00,00,
142739277,0000054B,false,Rx,1,2,05,FF,00,00,00,00,00,00,
142757139,0000042C,false,Rx,1,8,00,60,00,00,20,00,00,00,
142757385,0000043C,false,Rx,1,8,00,60,00,00,20,00,00,00,
142757633,0000044C,false,Rx,1,8,00,60,00,00,20,00,00,00,
142797320,00000207,false,Rx,1,8,00,01,40,00,68,05,14,00,
142797559,00000227,false,Rx,1,8,3F,02,B2,00,99,00,3A,B8,
142797801,00000209,false,Rx,1,8,00,00,00,00,68,05,14,00,
142798034,00000229,false,Rx,1,8,3A,02,9D,00,B9,00,3A,B8,
142798281,00000237,false,Rx,1,8,3D,41,00,17,00,00,00,00,
142798530,00000239,false,Rx,1,8,3E,41,00,17,00,00,00,00,
142798771,0000020B,false,Rx,1,8,00,01,C0,FF,68,05,14,00,
142799003,0000022B,false,Rx,1,8,1C,02,92,00,C8,00,3A,B8,
142799244,0000023B,false,Rx,1,8,3D,41,00,17,00,00,00,00,
142799483,00000247,false,Rx,1,8,66,7D,89,03,00,00,26,00,
142799716,00000249,false,Rx,1,8,66,7D,89,03,00,00,26,00,
142799957,0000024B,false,Rx,1,8,66,7D,89,03,00,00,26,00,
142800197,00000717,false,Rx,1,8,08,00,00,00,35,39,00,00,
142800437,00000719,false,Rx,1,8,07,00,00,00,02,25,00,00,
142800679,0000071B,false,Rx,1,8,06,00,4D,39,00,08,00,40,
142807115,00000217,false,Rx,1,8,00,80,7F,00,80,02,00,04,
142807632,00000219,false,Rx,1,8,00,C0,7F,00,82,02,00,04,
142808412,0000021B,false,Rx,1,8,00,40,00,00,7F,02,00,04,
142838726,0000045C,false,Rx,1,8,00,00,09,3E,00,00,00,00,
142857134,0000042C,false,Rx,1,8,00,60,00,00,20,00,00,00,
142857380,0000043C,false,Rx,1,8,00,60,00,00,20,00,00,00,
142857629,0000044C,false,Rx,1,8,00,60,00,00,20,00,00,00,
142897300,00000207,false,Rx,1,8,00,01,00,00,68,05,14,00,
142897533,00000227,false,Rx,1,8,48,02,BD,00,87,00,3A,B8,
142897781,00000209,false,Rx,1,8,00,00,00,00,68,05,14,00,
142898015,00000229,false,Rx,1,8,47,02,9E,00,AA,00,3A,B8,
142898256,00000237,false,Rx,1,8,3D,41,00,17,00,00,00,00,
142898503,00000239,false,Rx,1,8,3E,41,00,17,00,00,00,00,
142898744,0000020B,false,Rx,1,8,00,01,C0,FF,68,05,14,00,
142898978,0000022B,false,Rx,1,8,20,02,91,00,BA,00,3A,B8,
142899225,0000023B,false,Rx,1,8,3D,41,00,17,00,00,00,00,
142899456,00000247,false,Rx,1,8,66,7D,89,03,00,00,26,00,
142899697,00000249,false,Rx,1,8,66,7D,89,03,00,00,26,00,
142899931,0000024B,false,Rx,1,8,66,7D,89,03,00,00,26,00,
142900171,00000717,false,Rx,1,8,09,00,09,39,00,00,00,00,
142900411,00000719,false,Rx,1,8,08,00,00,00,55,39,00,00,
142900652,0000071B,false,Rx,1,8,07,00,00,00,02,25,00,00,
142907097,00000217,false,Rx,1,8,00,80,7F,00,80,02,00,04,
142907591,00000219,false,Rx,1,8,00,C0,7F,00,82,02,00,04,
142908411,0000021B,false,Rx,1,8,00,40,00,00,7F,02,00,04,
142938720,0000045C,false,Rx,1,8,00,00,09,3E,00,00,00,00,
142938854,0000010C,false,Rx,1,2,06,00,00,00,00,00,00,00,
142939004,00000549,false,Rx,1,2,06,FF,00,00,00,00,00,00,
142939137,00000547,false,Rx,1,2,06,FF,00,00,00,00,00,00,
142939271,0000054B,false,Rx,1,2,06,FF,00,00,00,00,00,00,
142957134,0000042C,false,Rx,1,8,00,60,00,00,20,00,00,00,
142957382,0000043C,false,Rx,1,8,00,60,00,00,20,00,00,00,
142957629,0000044C,false,Rx,1,8,00,60,00,00,20,00,00,00,
142997264,00000207,false,Rx,1,8,00,01,00,00,68,05,14,00,
142997495,00000227,false,Rx,1,8,4F,02,BB,00,7C,00,3A,B8,
142997744,00000237,false,Rx,1,8,3D,41,00,17,00,00,00,00,
142997991,00000209,false,Rx,1,8,00,00,00,00,68,05,14,00,
142998225,00000229,false,Rx,1,8,4F,02,9E,00,98,00,3A,B8,
142998465,00000239,false,Rx,1,8,3E,41,00,17,00,00,00,00,
142998706,0000020B,false,Rx,1,8,00,01,C0,FF,68,05,14,00,
142998940,0000022B,false,Rx,1,8,2D,02,8E,00,B1,00,3A,B8,
142999187,0000023B,false,Rx,1,8,3D,41,00,17,00,00,00,00,
142999426,00000247,false,Rx,1,8,66,7D,89,03,00,00,26,00,
142999659,00000249,false,Rx,1,8,66,7D,89,03,00,00,26,00,
142999893,0000024B,false,Rx,1,8,66,7D,89,03,00,00,26,00,
143000140,00000717,false,Rx,1,8,0A,00,00,00,00,00,00,00,
143000381,00000719,false,Rx,1,8,09,00,99,39,00,00,00,00,
143000629,0000071B,false,Rx,1,8,08,00,00,00,6D,39,00,00,
143007064,00000217,false,Rx,1,8,00,40,7F,00,80,02,00,04,
143007566,00000219,false,Rx,1,8,00,C0,7F,00,83,02,00,04,
143008369,0000021B,false,Rx,1,8,00,40,00,00,7F,02,00,04,
143038722,0000045C,false,Rx,1,8,00,00,09,3E,00,00,00,00,
143057137,0000042C,false,Rx,1,8,00,60,00,00,20,00,00,00,
143057384,0000043C,false,Rx,1,8,00,60,00,00,20,00,00,00,
143057631,0000044C,false,Rx,1,8,00,60,00,00,20,00,00,00,
143097165,00000367,false,Rx,1,8,00,00,00,00,00,00,00,00,
143097404,00000207,false,Rx,1,8,00,01,00,00,68,03,14,00,
143097636,00000227,false,Rx,1,8,56,02,B9,00,7C,00,3A,B8,
143097886,00000209,false,Rx,1,8,00,00,00,00,68,05,14,00,
143098118,00000229,false,Rx,1,8,5E,02,9D,00,89,00,3A,B8,
143098365,00000237,false,Rx,1,8,3D,41,00,17,00,00,00,00,
143098605,0000020B,false,Rx,1,8,00,01,C0,FF,68,05,14,00,
143098841,0000022B,false,Rx,1,8,3A,02,94,00,AC,00,3A,B8,
143099081,00000239,false,Rx,1,8,3E,41,00,17,00,00,00,00,
143099327,0000023B,false,Rx,1,8,3D,41,00,17,00,00,00,00,
143099561,00000247,false,Rx,1,8,66,7D,89,03,00,00,26,00,
143099802,00000249,false,Rx,1,8,66,7D,89,03,00,00,26,00,
143100034,0000024B,false,Rx,1,8,66,7D,89,03,00,00,26,00,
143100283,00000717,false,Rx,1,8,0B,00,00,00,00,00,00,00,
143100530,00000719,false,Rx,1,8,0A,00,00,00,00,00,00,00,
143100771,0000071B,false,Rx,1,8,09,00,BD,38,00,00,00,00,
143107044,00000217,false,Rx,1,8,00,40,7F,00,80,02,00,04,
143107284,00000507,false,Rx,1,8,2C,00,05,00,00,00,00,40,
143107539,00000377,false,Rx,1,8,00,00,00,00,00,00,00,00,
143107781,00000219,false,Rx,1,8,00,C0,7F,00,82,02,00,04,
143108351,0000021B,false,Rx,1,8,00,40,00,00,7F,02,00,04,
143117142,00000347,false,Rx,1,8,00,00,00,00,00,08,00,00,
143127138,00000357,false,Rx,1,8,00,00,00,00,00,00,00,00,
143137150,00000327,false,Rx,1,8,00,00,00,00,00,00,00,00,
143138716,0000045C,false,Rx,1,8,00,00,09,3E,00,00,00,00,
143138852,0000010C,false,Rx,1,2,07,00,00,00,00,00,00,00,
143139000,00000547,false,Rx,1,2,07,FF,00,00,00,00,00,00,
143139134,00000549,false,Rx,1,2,07,FF,00,00,00,00,00,00,
143139272,0000054B,false,Rx,1,2,07,FF,00,00,00,00,00,00,
143147136,00000337,false,Rx,1,8,00,00,00,00,00,00,00,00,
143157133,0000042C,false,Rx,1,8,00,60,00,00,20,00,00,00,
143157387,00000367,false,Rx,1,8,00,00,00,00,00,00,00,00,
143157634,0000043C,false,Rx,1,8,00,60,00,00,20,00,00,00,
143157877,0000044C,false,Rx,1,8,00,60,00,00,20,00,00,00,
143167143,00000377,false,Rx,1,8,00,00,00,00,00,00,00,00,
143177156,00000347,false,Rx,1,8,00,00,00,00,00,08,00,00,
143187153,00000357,false,Rx,1,8,00,00,00,00,00,00,00,00,
143197150,00000327,false,Rx,1,8,00,00,00,00,00,00,00,00,
143197396,00000207,false,Rx,1,8,00,01,00,00,68,03,14,00,
143197628,00000227,false,Rx,1,8,65,02,B3,00,5A,00,3A,B8,
143197870,00000237,false,Rx,1,8,3D,41,00,17,00,00,00,00,
143198118,00000209,false,Rx,1,8,00,00,00,00,68,03,14,00,
143198350,00000229,false,Rx,1,8,6A,02,9D,00,7B,00,3A,B8,
143198591,0000020B,false,Rx,1,8,00,01,C0,FF,68,05,14,00,
143198825,0000022B,false,Rx,1,8,45,02,94,00,8F,00,3A,B8,
143199065,00000239,false,Rx,1,8,3E,41,00,17,00,00,00,00,
143199312,0000023B,false,Rx,1,8,3D,41,00,17,00,00,00,00,
143199544,00000247,false,Rx,1,8,66,7D,89,03,00,00,26,00,
143199786,00000249,false,Rx,1,8,66,7D,89,03,00,00,26,00,
143200020,0000024B,false,Rx,1,8,66,7D,89,03,00,00,26,00,
143200267,00000369,false,Rx,1,8,00,00,00,00,00,00,00,00,
143200507,00000717,false,Rx,1,8,0C,01,00,04,04,06,01,00,
143200748,00000719,false,Rx,1,8,0B,00,00,00,00,00,00,00,
143200997,0000071B,false,Rx,1,8,0A,00,00,00,00,00,00,00,
143207047,00000217,false,Rx,1,8,00,40,7F,00,80,02,00,04,
143207293,00000337,false,Rx,1,8,00,00,00,00,00,00,00,00,
143207533,00000219,false,Rx,1,8,00,C0,7F,00,82,02,00,04,
143207783,00000509,false,Rx,1,8,2C,00,05,00,00,00,00,80,
143208030,00000379,false,Rx,1,8,00,00,00,00,00,00,00,00,
143208322,0000021B,false,Rx,1,8,00,40,00,00,7F,02,00,04,
143217620,00000349,false,Rx,1,8,00,00,00,00,00,08,00,00,
143227625,00000359,false,Rx,1,8,00,00,00,00,00,00,00,00,
143237622,00000329,false,Rx,1,8,00,00,00,00,00,00,00,00,
143238719,0000045C,false,Rx,1,8,00,00,09,3E,00,00,00,00,
143247618,00000339,false,Rx,1,8,00,00,00,00,00,00,00,00,
143257139,0000042C,false,Rx,1,8,00,60,00,00,20,00,00,00,
143257385,0000043C,false,Rx,1,8,00,60,00,00,20,00,00,00,
143257626,00000369,false,Rx,1,8,00,00,00,00,00,00,00,00,
143257876,0000044C,false,Rx,1,8,00,60,00,00,20,00,00,00,
143267610,00000379,false,Rx,1,8,00,00,00,00,00,00,00,00,
143277623,00000349,false,Rx,1,8,00,00,00,00,00,08,00,00,
143287621,00000359,false,Rx,1,8,00,00,00,00,00,00,00,00,
143297210,00000207,false,Rx,1,8,00,00,00,00,68,03,14,00,
143297441,00000227,false,Rx,1,8,6D,02,AC,00,53,00,3A,B8,
143297691,00000237,false,Rx,1,8,3D,41,00,17,00,00,00,00,
143297923,00000247,false,Rx,1,8,66,7D,89,03,00,00,26,00,
143298171,00000209,false,Rx,1,8,00,00,00,00,68,03,14,00,
143298404,00000229,false,Rx,1,8,6E,02,9E,00,7B,00,3A,B8,
143298652,00000239,false,Rx,1,8,3E,41,00,17,00,00,00,00,
143298893,0000020B,false,Rx,1,8,00,00,00,00,68,03,14,00,
143299127,0000022B,false,Rx,1,8,46,02,91,00,79,00,3A,B8,
143299373,0000023B,false,Rx,1,8,3D,41,00,17,00,00,00,00,
143299606,00000249,false,Rx,1,8,66,7D,89,03,00,00,26,00,
143299846,0000024B,false,Rx,1,8,66,7D,89,03,00,00,26,00,
143300095,00000329,false,Rx,1,8,00,00,00,00,00,00,00,00,
143300342,0000036B,false,Rx,1,8,00,00,00,00,00,00,00,00,
143300582,00000717,false,Rx,1,8,0E,00,00,02,A6,04,00,00,
143300824,00000719,false,Rx,1,8,0C,01,00,04,04,06,01,00,
143301071,0000071B,false,Rx,1,8,0B,00,00,00,00,00,00,00,
143307002,00000217,false,Rx,1,8,00,40,7F,00,80,02,00,04,
143307517,00000219,false,Rx,1,8,00,C0,7F,00,82,02,00,04,
143307767,00000339,false,Rx,1,8,00,00,00,00,00,00,00,00,
143308298,0000021B,false,Rx,1,8,00,40,00,00,7F,02,00,04,
143308547,0000050B,false,Rx,1,8,2C,00,05,00,00,00,00,C0,
143308796,0000037B,false,Rx,1,8,00,00,00,00,00,00,00,00,
143318400,0000034B,false,Rx,1,8,00,00,00,00,00,08,00,00,
143328412,0000035B,false,Rx,1,8,00,00,00,00,00,00,00,00,
143338402,0000032B,false,Rx,1,8,00,00,00,00,00,00,00,00,
143338761,0000045C,false,Rx,1,8,00,00,09,3E,00,00,00,00,
143338896,0000010C,false,Rx,1,2,08,00,00,00,00,00,00,00,
143339054,00000547,false,Rx,1,2,08,FF,00,00,00,00,00,00,
143339188,00000549,false,Rx,1,2,08,FF,00,00,00,00,00,00,
143339329,0000054B,false,Rx,1,2,08,FF,00,00,00,00,00,00,
143348392,0000033B,false,Rx,1,8,00,00,00,00,00,00,00,00,
143357135,0000042C,false,Rx,1,8,00,60,00,00,20,00,00,00,
143357381,0000043C,false,Rx,1,8,00,60,00,00,20,00,00,00,
143357629,0000044C,false,Rx,1,8,00,60,00,00,20,00,00,00,
143358395,0000036B,false,Rx,1,8,00,00,00,00,00,00,00,00,
143368397,0000037B,false,Rx,1,8,00,00,00,00,00,00,00,00,
143378410,0000034B,false,Rx,1,8,00,00,00,00,00,08,00,00,
143388414,0000035B,false,Rx,1,8,00,00,00,00,00,00,00,00,
143397173,00000207,false,Rx,1,8,00,00,00,00,68,03,14,00,
143397405,00000227,false,Rx,1,8,79,02,B0,00,45,00,3A,B8,
143397652,00000237,false,Rx,1,8,3D,41,00,17,00,00,00,00,
143397901,00000209,false,Rx,1,8,00,00,00,00,68,03,14,00,
143398133,00000229,false,Rx,1,8,76,02,99,00,66,00,3A,B8,
143398374,00000239,false,Rx,1,8,3E,41,00,17,00,00,00,00,
143398614,00000247,false,Rx,1,8,66,7D,89,03,00,00,26,00,
143398848,0000020B,false,Rx,1,8,00,00,C0,FF,68,03,14,00,
143399082,0000022B,false,Rx,1,8,5A,02,8F,00,6E,00,3A,B8,
143399328,0000023B,false,Rx,1,8,3D,41,00,17,00,00,00,00,
143399561,00000249,false,Rx,1,8,66,7D,89,03,00,00,26,00,
143399803,0000024B,false,Rx,1,8,66,7D,89,03,00,00,26,00,
143400050,0000032B,false,Rx,1,8,00,00,00,00,00,00,00,00,
143400282,00000717,false,Rx,1,8,0F,00,CD,01,5E,24,00,00,
143400523,00000719,false,Rx,1,8,0E,00,00,02,A6,04,00,00,
143400764,0000071B,false,Rx,1,8,0C,01,00,04,04,06,01,00,
143406971,00000217,false,Rx,1,8,00,40,7F,00,80,02,00,04,
143407472,00000219,false,Rx,1,8,00,C0,7F,00,82,02,00,04,
143408306,0000021B,false,Rx,1,8,00,40,00,00,7F,02,00,04,
143408553,0000033B,false,Rx,1,8,00,00,00,00,00,00,00,00,
143438721,0000045C,false,Rx,1,8,00,00,09,3E,00,00,00,00,
143457136,0000042C,false,Rx,1,8,00,60,00,00,20,00,00,00,
143457384,0000043C,false,Rx,1,8,00,60,00,00,20,00,00,00,
143457631,0000044C,false,Rx,1,8,00,60,00,00,20,00,00,00,
143497157,00000207,false,Rx,1,8,00,00,00,00,68,03,14,00,
143497397,00000227,false,Rx,1,8,7E,02,A8,00,3D,00,3A,B8,
143497637,00000237,false,Rx,1,8,3D,41,00,17,00,00,00,00,
143497886,00000209,false,Rx,1,8,00,00,00,00,68,03,14,00,
143498112,00000229,false,Rx,1,8,85,02,99,00,46,00,3A,B8,
143498359,00000239,false,Rx,1,8,3E,41,00,17,00,00,00,00,
143498599,0000020B,false,Rx,1,8,00,00,C0,FF,68,03,14,00,
143498827,0000022B,false,Rx,1,8,63,02,90,00,74,00,3A,B8,
143499074,0000023B,false,Rx,1,8,3D,41,00,17,00,00,00,00,
143499313,00000247,false,Rx,1,8,66,7D,89,03,00,00,26,00,
143499547,00000249,false,Rx,1,8,66,7D,89,03,00,00,26,00,
143499782,0000024B,false,Rx,1,8,66,7D,89,03,00,00,26,00,
143500021,00000717,false,Rx,1,8,10,FB,0F,00,13,00,00,00,
143500254,00000719,false,Rx,1,8,0F,00,CD,01,26,24,00,00,
143500495,0000071B,false,Rx,1,8,0E,00,00,02,A6,04,00,00,
143506968,00000217,false,Rx,1,8,00,40,7F,00,80,02,00,04,
143507448,00000219,false,Rx,1,8,00,C0,7F,00,82,02,00,04,
143508250,0000021B,false,Rx,1,8,00,40,00,00,7F,02,00,04,
143538723,0000045C,false,Rx,1,8,00,00,09,3E,00,00,00,00,
143538850,0000010C,false,Rx,1,2,09,00,00,00,00,00,00,00,
143538998,00000547,false,Rx,1,2,09,FF,00,00,00,00,00,00,
143539132,00000549,false,Rx,1,2,09,FF,00,00,00,00,00,00,
143539274,0000054B,false,Rx,1,2,09,FF,00,00,00,00,00,00,
143557138,0000042C,false,Rx,1,8,00,60,00,00,20,00,00,00,
143557376,0000043C,false,Rx,1,8,00,60,00,00,20,00,00,00,
143557631,0000044C,false,Rx,1,8,00,60,00,00,20,00,00,00,
143597135,00000207,false,Rx,1,8,00,00,00,00,68,03,14,00,
143597366,00000227,false,Rx,1,8,91,02,AE,00,3A,00,3A,B8,
143597614,00000237,false,Rx,1,8,3D,41,00,17,00,00,00,00,
143597857,00000209,false,Rx,1,8,00,00,C0,FF,68,03,14,00,
143598090,00000229,false,Rx,1,8,8B,02,95,00,49,00,3A,B8,
143598330,00000239,false,Rx,1,8,3E,41,00,17,00,00,00,00,
143598570,0000020B,false,Rx,1,8,00,00,C0,FF,68,03,14,00,
143598804,0000022B,false,Rx,1,8,6D,02,9C,00,8A,00,3A,B8,
143599052,0000023B,false,Rx,1,8,3D,41,00,17,00,00,00,00,
143599283,00000247,false,Rx,1,8,66,7D,89,03,00,00,26,00,
143599517,00000249,false,Rx,1,8,66,7D,89,03,00,00,26,00,
143599759,0000024B,false,Rx,1,8,66,7D,89,03,00,00,26,00,
143599999,00000717,false,Rx,1,8,11,00,7C,FF,00,00,02,02,
143600248,00000719,false,Rx,1,8,10,FE,0F,00,12,00,00,00,
143600480,0000071B,false,Rx,1,8,0F,00,CD,01,D7,23,00,00,
143606931,00000217,false,Rx,1,8,00,40,7F,00,80,02,00,04,
143607448,00000219,false,Rx,1,8,00,C0,7F,00,83,02,00,04,
143608236,0000021B,false,Rx,1,8,00,40,00,00,7F,02,00,04,
143638722,0000045C,false,Rx,1,8,00,00,09,3E,00,00,00,00,
143657133,0000042C,false,Rx,1,8,00,60,00,00,20,00,00,00,
143657379,0000043C,false,Rx,1,8,00,60,00,00,20,00,00,00,
143657627,0000044C,false,Rx,1,8,00,60,00,00,20,00,00,00,
143697135,00000207,false,Rx,1,8,00,00,00,00,68,01,14,00,
143697366,00000227,false,Rx,1,8,8E,02,AB,00,35,00,3A,B8,
143697606,00000209,false,Rx,1,8,00,00,C0,FF,68,03,14,00,
143697841,00000229,false,Rx,1,8,94,02,8F,00,48,00,3A,B8,
143698088,00000237,false,Rx,1,8,3D,41,00,17,00,00,00,00,
143698335,00000239,false,Rx,1,8,3E,41,00,17,00,00,00,00,
143698576,0000020B,false,Rx,1,8,00,00,C0,FF,68,03,14,00,
143698804,0000022B,false,Rx,1,8,79,02,8F,00,67,00,3A,B8,
143699051,0000023B,false,Rx,1,8,3D,41,00,17,00,00,00,00,
143699284,00000247,false,Rx,1,8,66,7D,89,03,00,00,26,00,
143699523,00000249,false,Rx,1,8,66,7D,89,03,00,00,26,00,
143699757,0000024B,false,Rx,1,8,66,7D,89,03,00,00,26,00,
143699998,00000717,false,Rx,1,8,12,40,25,00,27,00,27,00,
143700230,00000719,false,Rx,1,8,11,00,93,FF,00,00,02,02,
143700477,0000071B,false,Rx,1,8,10,03,00,00,11,00,00,00,
143706921,00000217,false,Rx,1,8,00,40,7F,00,80,02,00,04,
143707406,00000219,false,Rx,1,8,00,C0,7F,00,83,02,00,04,
143708239,0000021B,false,Rx,1,8,00,40,00,00,7F,02,00,04,
143738719,0000045C,false,Rx,1,8,00,00,09,3E,00,00,00,00,
143738853,0000010C,false,Rx,1,2,0A,00,00,00,00,00,00,00,
143739010,00000547,false,Rx,1,2,0A,FF,00,00,00,00,00,00,
143739144,00000549,false,Rx,1,2,0A,FF,00,00,00,00,00,00,
143739271,0000054B,false,Rx,1,2,0A,FF,00,00,00,00,00,00,
143757135,0000042C,false,Rx,1,8,00,60,00,00,20,00,00,00,
143757381,0000043C,false,Rx,1,8,00,60,00,00,20,00,00,00,
143757630,0000044C,false,Rx,1,8,00,60,00,00,20,00,00,00,
143797090,00000207,false,Rx,1,8,00,00,00,00,68,01,14,00,
143797321,00000227,false,Rx,1,8,92,02,AB,00,38,00,3A,B8,
143797569,00000237,false,Rx,1,8,3D,41,00,17,00,00,00,00,
143797819,00000209,false,Rx,1,8,00,00,00,00,68,01,14,00,
143798051,00000229,false,Rx,1,8,9C,02,93,00,4D,00,3A,B8,
143798292,00000239,false,Rx,1,8,3E,41,00,17,00,00,00,00,
143798532,0000020B,false,Rx,1,8,00,00,C0,FF,68,03,14,00,
143798766,0000022B,false,Rx,1,8,85,02,96,00,49,00,3A,B8,
143799013,0000023B,false,Rx,1,8,3D,41,00,17,00,00,00,00,
143799246,00000247,false,Rx,1,8,66,7D,89,03,00,00,26,00,
143799478,00000249,false,Rx,1,8,66,7D,89,03,00,00,26,00,
143799719,0000024B,false,Rx,1,8,66,7D,89,03,00,00,26,00,
143799968,00000717,false,Rx,1,8,13,00,00,00,00,00,00,00,
143800207,00000719,false,Rx,1,8,12,3F,26,00,27,00,26,00,
143800440,0000071B,false,Rx,1,8,11,00,8E,FF,00,00,02,02,
143806875,00000217,false,Rx,1,8,00,40,7F,00,80,02,00,04,
143807398,00000219,false,Rx,1,8,00,C0,7F,00,83,02,00,04,
143808193,0000021B,false,Rx,1,8,00,40,00,00,7F,02,00,04,
143838722,0000045C,false,Rx,1,8,00,00,09,3E,00,00,00,00,
143857137,0000042C,false,Rx,1,8,00,60,00,00,20,00,00,00,
143857383,0000043C,false,Rx,1,8,00,60,00,00,20,00,00,00,
143857632,0000044C,false,Rx,1,8,00,60,00,00,20,00,00,00,
143897049,00000207,false,Rx,1,8,00,00,00,00,68,01,14,00,
143897281,00000227,false,Rx,1,8,A0,02,B2,00,38,00,3A,B8,
143897529,00000237,false,Rx,1,8,3D,41,00,17,00,00,00,00,
143897778,00000209,false,Rx,1,8,00,00,00,00,68,01,14,00,
143898011,00000229,false,Rx,1,8,A4,02,90,00,41,00,3A,B8,
143898259,00000239,false,Rx,1,8,3E,41,00,17,00,00,00,00,
143898499,0000020B,false,Rx,1,8,00,00,C0,FF,68,03,14,00,
143898734,0000022B,false,Rx,1,8,7F,02,9A,00,40,00,3A,B8,
143898982,0000023B,false,Rx,1,8,3D,41,00,17,00,00,00,00,
143899214,00000247,false,Rx,1,8,66,7D,89,03,00,00,26,00,
143899454,00000249,false,Rx,1,8,66,7D,89,03,00,00,26,00,
143899688,0000024B,false,Rx,1,8,66,7D,89,03,00,00,26,00,
143899928,00000717,false,Rx,1,8,14,00,00,00,27,00,00,00,
143900175,00000719,false,Rx,1,8,13,00,00,00,00,00,00,00,
143900408,0000071B,false,Rx,1,8,12,3F,28,00,27,00,23,00,
143906853,00000217,false,Rx,1,8,00,40,7F,00,80,02,00,04,
143907362,00000219,false,Rx,1,8,00,C0,7F,00,82,02,00,04,
143908187,0000021B,false,Rx,1,8,00,80,00,00,7F,02,00,04,
143938719,0000045C,false,Rx,1,8,00,00,09,3E,00,00,00,00,
143938854,0000010C,false,Rx,1,2,0B,00,00,00,00,00,00,00,
143939011,00000549,false,Rx,1,2,0B,FF,00,00,00,00,00,00,
143939145,00000547,false,Rx,1,2,0B,FF,00,00,00,00,00,00,
143939278,0000054B,false,Rx,1,2,0B,FF,00,00,00,00,00,00,
143957134,0000042C,false,Rx,1,8,00,60,00,00,20,00,00,00,
143957382,0000043C,false,Rx,1,8,00,60,00,00,20,00,00,00,
143957629,0000044C,false,Rx,1,8,00,60,00,00,20,00,00,00,
143997068,00000207,false,Rx,1,8,00,00,00,00,68,01,14,00,
143997308,00000227,false,Rx,1,8,B1,02,B1,00,33,00,3A,B8,
143997555,00000209,false,Rx,1,8,00,00,00,00,68,01,14,00,
143997789,00000229,false,Rx,1,8,B4,02,95,00,39,00,3A,B8,
143998030,00000237,false,Rx,1,8,3D,41,00,17,00,00,00,00,
143998277,00000239,false,Rx,1,8,3E,41,00,17,00,00,00,00,
143998517,0000020B,false,Rx,1,8,00,00,C0,FF,68,03,14,00,
143998752,0000022B,false,Rx,1,8,90,02,8C,00,3F,00,3A,B8,
143999000,0000023B,false,Rx,1,8,3D,41,00,17,00,00,00,00,
143999238,00000247,false,Rx,1,8,66,7D,89,03,00,00,26,00,
143999471,00000249,false,Rx,1,8,66,7D,89,03,00,00,26,00,
143999706,0000024B,false,Rx,1,8,66,7D,89,03,00,00,26,00,
143999953,00000719,false,Rx,1,8,14,00,00,00,FB,FF,00,00,
144000201,0000071B,false,Rx,1,8,13,00,00,00,00,00,00,00,
144006851,00000217,false,Rx,1,8,00,40,7F,00,80,02,00,04,
144007338,00000219,false,Rx,1,8,00,C0,7F,00,83,02,00,04,
144008149,0000021B,false,Rx,1,8,00,80,00,00,7F,02,00,04,
144038723,0000045C,false,Rx,1,8,00,00,09,3E,00,00,00,00,
144057138,0000042C,false,Rx,1,8,00,60,00,00,20,00,00,00,
144057384,0000043C,false,Rx,1,8,00,60,00,00,20,00,00,00,
144057631,0000044C,false,Rx,1,8,00,60,00,00,20,00,00,00,
144096937,00000367,false,Rx,1,8,00,00,00,00,00,00,00,00,
144097185,00000207,false,Rx,1,8,00,00,00,00,68,01,14,00,
144097417,00000227,false,Rx,1,8,B4,02,B5,00,2E,00,3A,B8,
144097665,00000209,false,Rx,1,8,00,00,00,00,68,01,14,00,
144097899,00000229,false,Rx,1,8,BB,02,9C,00,34,00,3A,B8,
144098139,00000237,false,Rx,1,8,3D,41,00,17,00,00,00,00,
144098379,0000020B,false,Rx,1,8,00,00,C0,FF,68,03,14,00,
144098613,0000022B,false,Rx,1,8,91,02,93,00,3A,00,3A,B8,
144098861,00000239,false,Rx,1,8,3E,41,00,17,00,00,00,00,
144099107,0000023B,false,Rx,1,8,3D,41,00,17,00,00,00,00,
144099340,00000247,false,Rx,1,8,66,7D,89,03,00,00,26,00,
144099573,00000249,false,Rx,1,8,66,7D,89,03,00,00,26,00,
144099814,0000024B,false,Rx,1,8,66,7D,89,03,00,00,26,00,
144100054,00000717,false,Rx,1,8,16,00,00,00,00,00,05,39,
144100302,0000071B,false,Rx,1,8,14,00,00,00,31,00,00,00,
144106813,00000217,false,Rx,1,8,00,40,7F,00,80,02,00,04,
144107060,00000377,false,Rx,1,8,00,00,00,00,00,00,00,00,
144107337,00000219,false,Rx,1,8,00,C0,7F,00,83,02,00,04,
144108126,0000021B,false,Rx,1,8,00,80,00,00,7F,02,00,04,
144116928,00000347,false,Rx,1,8,00,00,00,00,00,08,00,00,
144126918,00000357,false,Rx,1,8,00,00,00,00,00,00,00,00,
144136915,00000327,false,Rx,1,8,00,00,00,00,00,00,00,00,
144138714,0000045C,false,Rx,1,8,00,00,09,3E,00,00,00,00,
144138849,0000010C,false,Rx,1,2,0C,00,00,00,00,00,00,00,
144138999,00000549,false,Rx,1,2,0C,FF,00,00,00,00,00,00,
144139133,00000547,false,Rx,1,2,0C,FF,00,00,00,00,00,00,
144139266,0000054B,false,Rx,1,2,0C,FF,00,00,00,00,00,00,
144146903,00000337,false,Rx,1,8,00,00,00,00,00,00,00,00,
144157135,0000042C,false,Rx,1,8,00,60,00,00,20,00,00,00,
144157381,0000043C,false,Rx,1,8,00,60,00,00,20,00,00,00,
144157628,0000044C,false,Rx,1,8,00,60,00,00,20,00,00,00,
144197009,00000207,false,Rx,1,8,00,00,00,00,68,01,14,00,
144197240,00000227,false,Rx,1,8,C4,02,B6,00,21,00,3A,B8,
144197488,00000237,false,Rx,1,8,3D,41,00,17,00,00,00,00,
144197730,00000209,false,Rx,1,8,00,00,C0,FF,68,01,14,00,
144197970,00000229,false,Rx,1,8,C1,02,9C,00,3B,00,3A,B8,
144198210,00000239,false,Rx,1,8,3E,41,00,17,00,00,00,00,
144198451,0000020B,false,Rx,1,8,00,00,C0,FF,68,01,14,00,
144198692,0000022B,false,Rx,1,8,A4,02,88,00,2F,00,3A,B8,
144198931,0000023B,false,Rx,1,8,3D,41,00,17,00,00,00,00,
144199170,00000247,false,Rx,1,8,66,7D,89,03,00,00,26,00,
144199404,00000249,false,Rx,1,8,66,7D,89,03,00,00,26,00,
144199644,0000024B,false,Rx,1,8,66,7D,89,03,00,00,26,00,
144199886,00000369,false,Rx,1,8,00,00,00,00,00,00,00,00,
144200127,00000717,false,Rx,1,8,17,00,02,60,00,00,20,01,
144200367,00000719,false,Rx,1,8,16,00,00,00,00,00,6D,39,
144206797,00000217,false,Rx,1,8,00,40,7F,00,80,02,00,04,
144207291,00000219,false,Rx,1,8,00,C0,7F,00,83,02,00,04,
144207546,00000379,false,Rx,1,8,00,00,00,00,00,00,00,00,
144208125,0000021B,false,Rx,1,8,00,80,00,00,7F,02,00,04,
144217409,00000349,false,Rx,1,8,00,00,00,00,00,08,00,00,
144227406,00000359,false,Rx,1,8,00,00,00,00,00,00,00,00,
144237409,00000329,false,Rx,1,8,00,00,00,00,00,00,00,00,
144238722,0000045C,false,Rx,1,8,00,00,09,3E,00,00,00,00,
144247391,00000339,false,Rx,1,8,00,00,00,00,00,00,00,00,
144257132,0000042C,false,Rx,1,8,00,60,00,00,20,00,00,00,
144257378,0000043C,false,Rx,1,8,00,60,00,00,20,00,00,00,
144257627,0000044C,false,Rx,1,8,00,60,00,00,20,00,00,00,
144296959,00000207,false,Rx,1,8,00,00,00,00,68,01,14,00,
144297190,00000227,false,Rx,1,8,C5,02,BD,00,28,00,3A,B8,
144297430,00000237,false,Rx,1,8,3D,41,00,17,00,00,00,00,
144297680,00000209,false,Rx,1,8,00,00,00,00,68,01,14,00,
144297919,00000229,false,Rx,1,8,C8,02,9A,00,29,00,3A,B8,
144298159,00000239,false,Rx,1,8,3E,41,00,17,00,00,00,00,
144298393,00000247,false,Rx,1,8,66,7D,89,03,00,00,26,00,
144298633,0000020B,false,Rx,1,8,00,00,C0,FF,68,01,14,00,
144298866,0000022B,false,Rx,1,8,AA,02,8B,00,2E,00,3A,B8,
144299113,0000023B,false,Rx,1,8,3D,41,00,17,00,00,00,00,
144299353,00000249,false,Rx,1,8,66,7D,89,03,00,00,26,00,
144299586,0000024B,false,Rx,1,8,66,7D,89,03,00,00,26,00,
144299835,0000036B,false,Rx,1,8,00,00,00,00,00,00,00,00,
144300075,00000717,false,Rx,1,8,18,00,66,06,00,00,00,00,
144300315,00000719,false,Rx,1,8,17,00,00,40,00,00,40,01,
144300564,0000071B,false,Rx,1,8,16,00,00,00,00,00,25,39,
144306755,00000217,false,Rx,1,8,00,40,7F,00,80,02,00,04,
144307286,00000219,false,Rx,1,8,00,C0,7F,00,83,02,00,04,
144308073,0000021B,false,Rx,1,8,00,80,00,00,7F,02,00,04,
144308322,0000037B,false,Rx,1,8,00,00,00,00,00,00,00,00,
144318199,0000034B,false,Rx,1,8,00,00,00,00,00,08,00,00,
144328187,0000035B,false,Rx,1,8,00,00,00,00,00,00,00,00,
144338177,0000032B,false,Rx,1,8,00,00,00,00,00,00,00,00,
144338762,0000045C,false,Rx,1,8,00,00,09,3E,00,00,00,00,
144338897,0000010C,false,Rx,1,2,0D,00,00,00,00,00,00,00,
144339048,00000547,false,Rx,1,2,0D,FF,00,00,00,00,00,00,
144339181,00000549,false,Rx,1,2,0D,FF,00,00,00,00,00,00,
144339315,0000054B,false,Rx,1,2,0D,FF,00,00,00,00,00,00,
144348170,0000033B,false,Rx,1,8,00,00,00,00,00,00,00,00,
144357132,0000042C,false,Rx,1,8,00,60,00,00,20,00,00,00,
144357378,0000043C,false,Rx,1,8,00,60,00,00,20,00,00,00,
144357627,0000044C,false,Rx,1,8,00,60,00,00,20,00,00,00,
144396941,00000207,false,Rx,1,8,00,00,00,00,68,01,14,00,
144397179,00000227,false,Rx,1,8,D3,02,BD,00,26,00,3A,B8,
144397420,00000237,false,Rx,1,8,3D,41,00,17,00,00,00,00,
144397669,00000209,false,Rx,1,8,00,00,C0,FF,68,01,14,00,
144397901,00000229,false,Rx,1,8,D1,02,A0,00,28,00,3A,B8,
144398142,00000239,false,Rx,1,8,3E,41,00,17,00,00,00,00,
144398382,0000020B,false,Rx,1,8,00,00,C0,FF,68,01,14,00,
144398615,0000022B,false,Rx,1,8,A9,02,8A,00,38,00,3A,B8,
144398864,0000023B,false,Rx,1,8,3D,41,00,17,00,00,00,00,
144399096,00000247,false,Rx,1,8,66,7D,89,03,00,00,26,00,
144399336,00000249,false,Rx,1,8,66,7D,89,03,00,00,26,00,
144399568,0000024B,false,Rx,1,8,66,7D,89,03,00,00,26,00,
144399819,00000717,false,Rx,1,8,19,00,00,00,00,00,00,00,
144400059,00000719,false,Rx,1,8,18,00,66,06,00,00,00,00,
144400306,0000071B,false,Rx,1,8,17,00,00,30,00,00,50,01,
144406745,00000217,false,Rx,1,8,00,40,7F,00,80,02,00,04,
144407253,00000219,false,Rx,1,8,00,C0,7F,00,83,02,00,04,
144408071,0000021B,false,Rx,1,8,00,80,00,00,7F,02,00,04,
144438716,0000045C,false,Rx,1,8,00,00,09,3E,00,00,00,00,
144457134,0000042C,false,Rx,1,8,00,60,00,00,20,00,00,00,
144457381,0000043C,false,Rx,1,8,00,60,00,00,20,00,00,00,
144457629,0000044C,false,Rx,1,8,00,60,00,00,20,00,00,00,
144496908,00000207,false,Rx,1,8,00,00,00,00,68,01,14,00,
144497146,00000227,false,Rx,1,8,DF,02,B6,00,22,00,3A,B8,
144497395,00000237,false,Rx,1,8,3D,41,00,17,00,00,00,00,
144497635,00000209,false,Rx,1,8,00,00,C0,FF,68,01,14,00,
144497868,00000229,false,Rx,1,8,DA,02,A2,00,28,00,3A,B8,
144498109,00000239,false,Rx,1,8,3E,41,00,17,00,00,00,00,
144498349,0000020B,false,Rx,1,8,00,00,C0,FF,68,01,14,00,
144498582,0000022B,false,Rx,1,8,C3,02,92,00,29,00,3A,B8,
144498832,0000023B,false,Rx,1,8,3D,41,00,17,00,00,00,00,
144499063,00000247,false,Rx,1,8,66,7D,89,03,00,00,26,00,
144499303,00000249,false,Rx,1,8,66,7D,89,03,00,00,26,00,
144499537,0000024B,false,Rx,1,8,66,7D,89,03,00,00,26,00,
144499779,00000717,false,Rx,1,8,01,00,00,00,CC,0C,00,00,
144500026,00000719,false,Rx,1,8,19,00,00,00,00,00,00,00,
144500267,0000071B,false,Rx,1,8,18,00,66,06,00,00,00,00,
144506732,00000217,false,Rx,1,8,00,00,7F,00,80,02,00,04,
144507226,00000219,false,Rx,1,8,00,C0,7F,00,83,02,00,04,
144508036,0000021B,false,Rx,1,8,00,80,00,00,7F,02,00,04,
144538720,0000045C,false,Rx,1,8,00,00,09,3E,00,00,00,00,
144538854,0000010C,false,Rx,1,2,0E,00,00,00,00,00,00,00,
144539003,00000547,false,Rx,1,2,0E,FF,00,00,00,00,00,00,
144539137,00000549,false,Rx,1,2,0E,FF,00,00,00,00,00,00,
144539270,0000054B,false,Rx,1,2,0E,FF,00,00,00,00,00,00,
144557135,0000042C,false,Rx,1,8,00,60,00,00,20,00,00,00,
144557381,0000043C,false,Rx,1,8,00,60,00,00,20,00,00,00,
144557628,0000044C,false,Rx,1,8,00,60,00,00,20,00,00,00,
144596885,00000207,false,Rx,1,8,00,00,00,00,68,01,14,00,
144597117,00000227,false,Rx,1,8,E4,02,B6,00,1C,00,3A,B8,
144597365,00000237,false,Rx,1,8,3D,41,00,17,00,00,00,00,
144597612,00000209,false,Rx,1,8,00,00,00,00,68,01,14,00,
144597847,00000229,false,Rx,1,8,EB,02,98,00,27,00,3A,B8,
144598086,00000239,false,Rx,1,8,3E,41,00,17,00,00,00,00,
144598334,0000020B,false,Rx,1,8,00,00,C0,FF,68,01,14,00,
144598575,0000022B,false,Rx,1,8,BF,02,8A,00,20,00,3A,B8,
144598816,0000023B,false,Rx,1,8,3D,41,00,17,00,00,00,00,
144599055,00000247,false,Rx,1,8,66,7D,89,03,00,00,26,00,
144599287,00000249,false,Rx,1,8,66,7D,89,03,00,00,26,00,
144599521,0000024B,false,Rx,1,8,66,7D,89,03,00,00,26,00,
144599769,00000717,false,Rx,1,8,02,00,00,00,00,00,00,00,
144600009,00000719,false,Rx,1,8,01,00,00,00,CC,0C,00,00,
144600258,0000071B,false,Rx,1,8,19,00,00,00,00,00,00,00,
144606686,00000217,false,Rx,1,8,00,00,7F,00,80,02,00,04,
144607225,00000219,false,Rx,1,8,00,C0,7F,00,83,02,00,04,
144608007,0000021B,false,Rx,1,8,00,80,00,00,7F,02,00,04,
144638714,0000045C,false,Rx,1,8,00,00,09,3E,00,00,00,00,
144657130,0000042C,false,Rx,1,8,00,60,00,00,20,00,00,00,
144657376,0000043C,false,Rx,1,8,00,60,00,00,20,00,00,00,
144657631,0000044C,false,Rx,1,8,00,60,00,00,20,00,00,00,
144696874,00000207,false,Rx,1,8,00,00,00,00,68,01,14,00,
144697112,00000227,false,Rx,1,8,E7,02,B3,00,21,00,3A,B8,
144697360,00000237,false,Rx,1,8,3D,41,00,17,00,00,00,00,
144697600,00000209,false,Rx,1,8,00,00,C0,FF,68,01,14,00,
144697834,00000229,false,Rx,1,8,EC,02,A3,00,1E,00,3A,B8,
144698074,00000239,false,Rx,1,8,3E,41,00,17,00,00,00,00,
144698314,0000020B,false,Rx,1,8,00,00,C0,FF,68,01,14,00,
144698548,0000022B,false,Rx,1,8,C8,02,95,00,23,00,3A,B8,
144698796,0000023B,false,Rx,1,8,3D,41,00,17,00,00,00,00,
144699027,00000247,false,Rx,1,8,66,7D,89,03,00,00,26,00,
144699269,00000249,false,Rx,1,8,66,7D,89,03,00,00,26,00,
144699501,0000024B,false,Rx,1,8,66,7D,89,03,00,00,26,00,
144699749,00000719,false,Rx,1,8,02,00,00,00,00,00,00,00,
144699998,0000071B,false,Rx,1,8,01,00,00,00,CC,0C,00,00,
144706679,00000217,false,Rx,1,8,00,00,7F,00,80,02,00,04,
144707180,00000219,false,Rx,1,8,00,C0,7F,00,83,02,00,04,
144708013,0000021B,false,Rx,1,8,00,80,00,00,7F,02,00,04,
144738722,0000045C,false,Rx,1,8,00,00,09,3E,00,00,00,00,
144738856,0000010C,false,Rx,1,2,0F,00,00,00,00,00,00,00,
144739005,00000549,false,Rx,1,2,0F,FF,00,00,00,00,00,00,
144739140,00000547,false,Rx,1,2,0F,FF,00,00,00,00,00,00,
144739274,0000054B,false,Rx,1,2,0F,FF,00,00,00,00,00,00,
144757137,0000042C,false,Rx,1,8,00,60,00,00,20,00,00,00,
144757383,0000043C,false,Rx,1,8,00,60,00,00,20,00,00,00,
144757632,0000044C,false,Rx,1,8,00,60,00,00,20,00,00,00,
144796843,00000207,false,Rx,1,8,00,00,00,00,68,01,14,00,
144797074,00000227,false,Rx,1,8,F2,02,B8,00,1E,00,3A,B8,
144797322,00000237,false,Rx,1,8,3D,41,00,17,00,00,00,00,
144797570,00000209,false,Rx,1,8,00,00,00,00,68,01,14,00,
144797804,00000229,false,Rx,1,8,FA,02,95,00,10,00,3A,B8,
144798051,00000239,false,Rx,1,8,3E,41,00,17,00,00,00,00,
144798292,0000020B,false,Rx,1,8,00,00,C0,FF,68,01,14,00,
144798532,0000022B,false,Rx,1,8,D1,02,94,00,20,00,3A,B8,
144798774,0000023B,false,Rx,1,8,3D,41,00,17,00,00,00,00,
144799006,00000247,false,Rx,1,8,66,7D,89,03,00,00,26,00,
144799246,00000249,false,Rx,1,8,66,7D,89,03,00,00,26,00,
144799478,0000024B,false,Rx,1,8,66,7D,89,03,00,00,26,00,
144799727,00000717,false,Rx,1,8,04,00,00,00,0D,09,05,00,
144799975,0000071B,false,Rx,1,8,02,00,00,00,00,00,00,00,
144806640,00000217,false,Rx,1,8,00,00,7F,00,80,02,00,04,
144807172,00000219,false,Rx,1,8,00,C0,7F,00,83,02,00,04,
144807968,0000021B,false,Rx,1,8,00,80,00,00,7F,02,00,04,
144838719,0000045C,false,Rx,1,8,00,00,09,3E,00,00,00,00,
144857134,0000042C,false,Rx,1,8,00,60,00,00,20,00,00,00,
144857382,0000043C,false,Rx,1,8,00,60,00,00,20,00,00,00,
144857629,0000044C,false,Rx,1,8,00,60,00,00,20,00,00,00,
144896818,00000207,false,Rx,1,8,00,00,00,00,68,01,14,00,
144897050,00000227,false,Rx,1,8,F7,02,AF,00,24,00,3A,B8,
144897298,00000237,false,Rx,1,8,3D,41,00,17,00,00,00,00,
144897538,00000209,false,Rx,1,8,00,00,C0,FF,68,01,14,00,
144897771,00000229,false,Rx,1,8,FF,02,97,00,20,00,3A,B8,
144898019,00000239,false,Rx,1,8,3E,41,00,17,00,00,00,00,
144898260,0000020B,false,Rx,1,8,00,00,C0,FF,68,01,14,00,
144898492,0000022B,false,Rx,1,8,E2,02,96,00,40,00,3A,B8,
144898741,0000023B,false,Rx,1,8,3D,41,00,17,00,00,00,00,
144898974,00000247,false,Rx,1,8,66,7D,89,03,00,00,26,00,
144899206,00000249,false,Rx,1,8,66,7D,89,03,00,00,26,00,
144899446,0000024B,false,Rx,1,8,66,7D,89,03,00,00,26,00,
144899689,00000717,false,Rx,1,8,05,00,00,00,00,00,00,00,
144899936,00000719,false,Rx,1,8,04,00,00,00,0D,09,02,00,
144906609,00000217,false,Rx,1,8,00,00,7F,00,80,02,00,04,
144907163,00000219,false,Rx,1,8,00,C0,7F,00,83,02,00,04,
144907958,0000021B,false,Rx,1,8,00,80,00,00,7F,02,00,04,
144938721,0000045C,false,Rx,1,8,00,00,09,3E,00,00,00,00,
144938849,0000010C,false,Rx,1,2,10,00,00,00,00,00,00,00,
144938998,00000547,false,Rx,1,2,10,FF,00,00,00,00,00,00,
144939132,00000549,false,Rx,1,2,10,FF,00,00,00,00,00,00,
144939258,0000054B,false,Rx,1,2,10,FF,00,00,00,00,00,00,
144957136,0000042C,false,Rx,1,8,00,60,00,00,20,00,00,00,
144957384,0000043C,false,Rx,1,8,00,60,00,00,20,00,00,00,
144957631,0000044C,false,Rx,1,8,00,60,00,00,20,00,00,00,
144996805,00000207,false,Rx,1,8,00,00,00,00,68,01,14,00,
144997043,00000227,false,Rx,1,8,03,03,AD,00,16,00,3A,B8,
144997285,00000237,false,Rx,1,8,3D,41,00,17,00,00,00,00,
144997539,00000209,false,Rx,1,8,00,00,00,00,68,01,14,00,
144997773,00000229,false,Rx,1,8,09,03,91,00,13,00,3A,B8,
144998015,00000239,false,Rx,1,8,3E,41,00,17,00,00,00,00,
144998262,0000020B,false,Rx,1,8,00,00,00,00,68,01,14,00,
144998494,0000022B,false,Rx,1,8,F1,02,96,00,12,00,3A,B8,
144998737,0000023B,false,Rx,1,8,3D,41,00,17,00,00,00,00,
144998976,00000247,false,Rx,1,8,66,7D,89,03,00,00,26,00,
144999208,00000249,false,Rx,1,8,66,7D,89,03,00,00,26,00,
144999449,0000024B,false,Rx,1,8,66,7D,89,03,00,00,26,00,
144999683,00000717,false,Rx,1,8,06,00,65,39,00,08,00,40,
144999930,00000719,false,Rx,1,8,05,00,00,00,00,00,00,00,
145000170,0000071B,false,Rx,1,8,04,00,00,00,0D,09,00,00,
145006612,00000217,false,Rx,1,8,00,00,7F,00,80,02,00,04,
145007114,00000219,false,Rx,1,8,00,C0,7F,00,83,02,00,04,
145007918,0000021B,false,Rx,1,8,00,80,00,00,7F,02,00,04,
145038715,0000045C,false,Rx,1,8,00,00,09,3E,00,00,00,00,
145057132,0000042C,false,Rx,1,8,00,60,00,00,20,00,00,00,
145057379,0000043C,false,Rx,1,8,00,60,00,00,20,00,00,00,
145057626,0000044C,false,Rx,1,8,00,60,00,00,20,00,00,00,
145096701,00000367,false,Rx,1,8,00,00,00,00,00,00,00,00,
145096948,00000207,false,Rx,1,8,00,00,00,00,68,01,14,00,
145097189,00000227,false,Rx,1,8,06,03,A8,00,11,00,3A,B8,
145097436,00000209,false,Rx,1,8,00,00,00,00,68,01,14,00,
145097669,00000229,false,Rx,1,8,14,03,8F,00,0C,00,3A,B8,
145097918,00000237,false,Rx,1,8,3D,41,00,17,00,00,00,00,
145098165,0000020B,false,Rx,1,8,00,00,00,00,68,01,14,00,
145098398,0000022B,false,Rx,1,8,F3,02,93,00,0C,00,3A,B8,
145098646,00000239,false,Rx,1,8,3E,41,00,17,00,00,00,00,
145098886,0000023B,false,Rx,1,8,3D,41,00,17,00,00,00,00,
145099126,00000247,false,Rx,1,8,66,7D,89,03,00,00,26,00,
145099360,00000249,false,Rx,1,8,66,7D,89,03,00,00,26,00,
145099600,0000024B,false,Rx,1,8,66,7D,89,03,00,00,26,00,
145099841,00000717,false,Rx,1,8,07,00,00,00,02,25,00,00,
145100074,00000719,false,Rx,1,8,06,00,85,39,00,08,00,40,
145100322,0000071B,false,Rx,1,8,05,00,00,00,00,00,00,00,
145106572,00000217,false,Rx,1,8,00,00,7F,00,80,02,00,04,
145106819,00000377,false,Rx,1,8,00,00,00,00,00,00,00,00,
145107112,00000219,false,Rx,1,8,00,C0,7F,00,83,02,00,04,
145107893,0000021B,false,Rx,1,8,00,80,00,00,7F,02,00,04,
145116694,00000347,false,Rx,1,8,00,00,00,00,00,08,00,00,
145126692,00000357,false,Rx,1,8,00,00,00,00,00,00,00,00,
145136689,00000327,false,Rx,1,8,00,00,00,00,00,00,00,00,
145138714,0000045C,false,Rx,1,8,00,00,09,3E,00,00,00,00,
145138848,0000010C,false,Rx,1,2,11,00,00,00,00,00,00,00,
145138997,00000549,false,Rx,1,2,11,FF,00,00,00,00,00,00,
145139131,00000547,false,Rx,1,2,11,FF,00,00,00,00,00,00,
145139266,0000054B,false,Rx,1,2,11,FF,00,00,00,00,00,00,
145146684,00000337,false,Rx,1,8,00,00,00,00,00,00,00,00,
145157135,0000042C,false,Rx,1,8,00,60,00,00,20,00,00,00,
145157381,0000043C,false,Rx,1,8,00,60,00,00,20,00,00,00,
145157628,0000044C,false,Rx,1,8,00,60,00,00,20,00,00,00,
145196749,00000207,false,Rx,1,8,00,00,00,00,68,01,14,00,
145196989,00000227,false,Rx,1,8,13,03,A9,00,0D,00,3A,B8,
145197236,00000237,false,Rx,1,8,3D,41,00,17,00,00,00,00,
145197469,00000247,false,Rx,1,8,66,7D,89,03,00,00,26,00,
145197718,00000209,false,Rx,1,8,00,00,00,00,68,01,14,00,
145197951,00000229,false,Rx,1,8,16,03,99,00,1B,00,3A,B8,
145198191,0000020B,false,Rx,1,8,00,00,C0,FF,68,01,14,00,
145198424,0000022B,false,Rx,1,8,F5,02,95,00,06,00,3A,B8,
145198672,00000239,false,Rx,1,8,3E,41,00,17,00,00,00,00,
145198919,0000023B,false,Rx,1,8,3D,41,00,17,00,00,00,00,
145199152,00000249,false,Rx,1,8,66,7D,89,03,00,00,26,00,
145199384,0000024B,false,Rx,1,8,66,7D,89,03,00,00,26,00,
145199639,00000369,false,Rx,1,8,00,00,00,00,00,00,00,00,
145199873,00000717,false,Rx,1,8,08,00,00,00,69,39,00,00,
145200121,00000719,false,Rx,1,8,07,00,00,00,02,25,00,00,
145200361,0000071B,false,Rx,1,8,06,00,15,39,00,08,00,40,
145206550,00000217,false,Rx,1,8,00,00,7F,00,80,02,00,04,
145207076,00000219,false,Rx,1,8,00,C0,7F,00,83,02,00,04,
145207330,00000379,false,Rx,1,8,00,00,00,00,00,00,00,00,
145207894,0000021B,false,Rx,1,8,00,80,00,00,7F,02,00,04,
145217195,00000349,false,Rx,1,8,00,00,00,00,00,08,00,00,
145227200,00000359,false,Rx,1,8,00,00,00,00,00,00,00,00,
145237198,00000329,false,Rx,1,8,00,00,00,00,00,00,00,00,
145238714,0000045C,false,Rx,1,8,00,00,09,3E,00,00,00,00,
145247195,00000339,false,Rx,1,8,00,00,00,00,00,00,00,00,
145257132,0000042C,false,Rx,1,8,00,60,00,00,20,00,00,00,
145257379,0000043C,false,Rx,1,8,00,60,00,00,20,00,00,00,
145257627,0000044C,false,Rx,1,8,00,60,00,00,20,00,00,00,
145296737,00000207,false,Rx,1,8,00,00,00,00,68,01,14,00,
145296976,00000227,false,Rx,1,8,19,03,A9,00,13,00,3A,B8,
145297216,00000237,false,Rx,1,8,3D,41,00,17,00,00,00,00,
145297464,00000209,false,Rx,1,8,00,00,C0,FF,68,01,14,00,
145297699,00000229,false,Rx,1,8,20,03,90,00,15,00,3A,B8,
145297946,00000239,false,Rx,1,8,3E,41,00,17,00,00,00,00,
145298179,00000247,false,Rx,1,8,66,7D,89,03,00,00,26,00,
145298420,0000020B,false,Rx,1,8,00,00,C0,FF,68,01,14,00,
145298652,0000022B,false,Rx,1,8,06,03,95,00,11,00,3A,B8,
145298900,0000023B,false,Rx,1,8,3D,41,00,17,00,00,00,00,
145299141,00000249,false,Rx,1,8,66,7D,89,03,00,00,26,00,
145299373,0000024B,false,Rx,1,8,66,7D,89,03,00,00,26,00,
145299621,0000036B,false,Rx,1,8,00,00,00,00,00,00,00,00,
145299863,00000717,false,Rx,1,8,09,00,89,39,00,00,00,00,
145300103,00000719,false,Rx,1,8,08,00,00,00,81,39,00,00,
145300350,0000071B,false,Rx,1,8,07,00,00,00,02,25,00,00,
145306542,00000217,false,Rx,1,8,00,00,7F,00,80,02,00,04,
145307052,00000219,false,Rx,1,8,00,C0,7F,00,83,02,00,04,
145307856,0000021B,false,Rx,1,8,00,80,00,00,7F,02,00,04,
145308104,0000037B,false,Rx,1,8,00,00,00,00,00,00,00,00,
145317981,0000034B,false,Rx,1,8,00,00,00,00,00,08,00,00,
145327978,0000035B,false,Rx,1,8,00,00,00,00,00,00,00,00,
145337975,0000032B,false,Rx,1,8,00,00,00,00,00,00,00,00,
145338717,0000045C,false,Rx,1,8,00,00,09,3E,00,00,00,00,
145338853,0000010C,false,Rx,1,2,12,00,00,00,00,00,00,00,
145338995,00000547,false,Rx,1,2,12,FF,00,00,00,00,00,00,
145339129,00000549,false,Rx,1,2,12,FF,00,00,00,00,00,00,
145339263,0000054B,false,Rx,1,2,12,FF,00,00,00,00,00,00,
145347973,0000033B,false,Rx,1,8,00,00,00,00,00,00,00,00,
145357132,0000042C,false,Rx,1,8,00,60,00,00,20,00,00,00,
145357379,0000043C,false,Rx,1,8,00,60,00,00,20,00,00,00,
145357627,0000044C,false,Rx,1,8,00,60,00,00,20,00,00,00,
145396692,00000207,false,Rx,1,8,00,00,00,00,68,01,14,00,
145396930,00000227,false,Rx,1,8,22,03,A7,00,1E,00,3A,B8,
145397178,00000237,false,Rx,1,8,3D,41,00,17,00,00,00,00,
145397419,00000209,false,Rx,1,8,00,00,C0,FF,68,01,14,00,
145397659,00000229,false,Rx,1,8,2B,03,94,00,05,00,3A,B8,
145397900,00000239,false,Rx,1,8,3E,41,00,17,00,00,00,00,
145398141,0000020B,false,Rx,1,8,00,00,C0,FF,68,01,14,00,
145398381,0000022B,false,Rx,1,8,01,03,95,00,1B,00,3A,B8,
145398621,0000023B,false,Rx,1,8,3D,41,00,17,00,00,00,00,
145398854,00000247,false,Rx,1,8,66,7D,89,03,00,00,26,00,
145399094,00000249,false,Rx,1,8,66,7D,89,03,00,00,26,00,
145399326,0000024B,false,Rx,1,8,66,7D,89,03,00,00,26,00,
145399575,00000717,false,Rx,1,8,0A,00,00,00,00,00,00,00,
145399816,00000719,false,Rx,1,8,09,00,71,39,00,00,00,00,
145400063,0000071B,false,Rx,1,8,08,00,00,00,1D,39,00,00,
145406500,00000217,false,Rx,1,8,00,00,7F,00,80,02,00,04,
145407046,00000219,false,Rx,1,8,00,C0,7F,00,83,02,00,04,
145407834,0000021B,false,Rx,1,8,00,80,00,00,7F,02,00,04,
145438714,0000045C,false,Rx,1,8,00,00,09,3E,00,00,00,00,
145457137,0000042C,false,Rx,1,8,00,60,00,00,20,00,00,00,
145457376,0000043C,false,Rx,1,8,00,60,00,00,20,00,00,00,
145457631,0000044C,false,Rx,1,8,00,60,00,00,20,00,00,00,
145496696,00000207,false,Rx,1,8,00,00,00,00,68,01,14,00,
145496935,00000227,false,Rx,1,8,2C,03,AC,00,16,00,3A,B8,
145497176,00000237,false,Rx,1,8,3D,41,00,17,00,00,00,00,
145497424,00000209,false,Rx,1,8,00,00,00,00,68,01,14,00,
145497665,00000229,false,Rx,1,8,3A,03,92,00,0A,00,3A,B8,
145497906,00000239,false,Rx,1,8,3E,41,00,17,00,00,00,00,
145498146,0000020B,false,Rx,1,8,00,00,C0,FF,68,01,14,00,
145498378,0000022B,false,Rx,1,8,0B,03,94,00,16,00,3A,B8,
145498625,0000023B,false,Rx,1,8,3D,41,00,17,00,00,00,00,
145498860,00000247,false,Rx,1,8,66,7D,89,03,00,00,26,00,
145499099,00000249,false,Rx,1,8,66,7D,89,03,00,00,26,00,
145499332,0000024B,false,Rx,1,8,66,7D,89,03,00,00,26,00,
145499580,00000717,false,Rx,1,8,0B,00,00,00,00,00,00,00,
145499829,00000719,false,Rx,1,8,0A,00,00,00,00,00,00,00,
145500069,0000071B,false,Rx,1,8,09,00,21,39,00,00,00,00,
145506497,00000217,false,Rx,1,8,00,00,7F,00,80,02,00,04,
145507006,00000219,false,Rx,1,8,00,C0,7F,00,83,02,00,04,
145507832,0000021B,false,Rx,1,8,00,80,00,00,7F,02,00,04,
145538720,0000045C,false,Rx,1,8,00,00,09,3E,00,00,00,00,
145538854,0000010C,false,Rx,1,2,13,00,00,00,00,00,00,00,
145539010,00000549,false,Rx,1,2,13,FF,00,00,00,00,00,00,
145539144,00000547,false,Rx,1,2,13,FF,00,00,00,00,00,00,
145539270,0000054B,false,Rx,1,2,13,FF,00,00,00,00,00,00,
145557130,0000042C,false,Rx,1,8,00,60,00,00,20,00,00,00,
145557376,0000043C,false,Rx,1,8,00,60,00,00,20,00,00,00,
145557631,0000044C,false,Rx,1,8,00,60,00,00,20,00,00,00,
145596646,00000207,false,Rx,1,8,00,00,C0,FF,68,01,14,00,
145596886,00000227,false,Rx,1,8,35,03,B4,00,0E,00,3A,B8,
145597127,00000237,false,Rx,1,8,3D,41,00,17,00,00,00,00,
145597374,00000209,false,Rx,1,8,00,00,C0,FF,68,01,14,00,
145597607,00000229,false,Rx,1,8,41,03,95,00,0B,00,3A,B8,
145597849,00000239,false,Rx,1,8,3E,41,00,17,00,00,00,00,
145598097,0000020B,false,Rx,1,8,00,00,00,00,68,01,14,00,
145598329,0000022B,false,Rx,1,8,18,03,92,00,11,00,3A,B8,
145598578,0000023B,false,Rx,1,8,3D,41,00,17,00,00,00,00,
145598810,00000247,false,Rx,1,8,66,7D,89,03,00,00,26,00,
145599050,00000249,false,Rx,1,8,66,7D,89,03,00,00,26,00,
145599284,0000024B,false,Rx,1,8,66,7D,89,03,00,00,26,00,
145599523,00000717,false,Rx,1,8,0C,01,00,04,04,06,01,00,
145599772,00000719,false,Rx,1,8,0B,00,00,00,00,00,00,00,
145600012,0000071B,false,Rx,1,8,0A,00,00,00,00,00,00,00,
145606447,00000217,false,Rx,1,8,00,00,7F,00,80,02,00,04,
145607009,00000219,false,Rx,1,8,00,C0,7F,00,83,02,00,04,
145607790,0000021B,false,Rx,1,8,00,80,00,00,7F,02,00,04,
145638717,0000045C,false,Rx,1,8,00,00,09,3E,00,00,00,00,
145657132,0000042C,false,Rx,1,8,00,60,00,00,20,00,00,00,
145657379,0000043C,false,Rx,1,8,00,60,00,00,20,00,00,00,
145657627,0000044C,false,Rx,1,8,00,60,00,00,20,00,00,00,
145696617,00000207,false,Rx,1,8,00,00,C0,FF,68,01,14,00,
145696858,00000227,false,Rx,1,8,3D,03,B7,00,10,00,3A,B8,
145697106,00000237,false,Rx,1,8,3D,41,00,17,00,00,00,00,
145697345,00000209,false,Rx,1,8,00,00,C0,FF,68,01,14,00,
145697579,00000229,false,Rx,1,8,4A,03,97,00,11,00,3A,B8,
145697827,00000239,false,Rx,1,8,3E,41,00,17,00,00,00,00,
145698067,0000020B,false,Rx,1,8,00,00,C0,FF,68,01,14,00,
145698300,0000022B,false,Rx,1,8,13,03,90,00,14,00,3A,B8,
145698548,0000023B,false,Rx,1,8,3D,41,00,17,00,00,00,00,
145698781,00000247,false,Rx,1,8,66,7D,89,03,00,00,26,00,
145699021,00000249,false,Rx,1,8,66,7D,89,03,00,00,26,00,
145699254,0000024B,false,Rx,1,8,66,7D,89,03,00,00,26,00,
145699502,00000717,false,Rx,1,8,0E,00,00,02,06,0E,00,00,
145699743,00000719,false,Rx,1,8,0C,01,00,04,04,06,01,00,
145699984,0000071B,false,Rx,1,8,0B,00,00,00,00,00,00,00,
145706421,00000217,false,Rx,1,8,00,00,7F,00,80,02,00,04,
145706962,00000219,false,Rx,1,8,00,C0,7F,00,83,02,00,04,
145707795,0000021B,false,Rx,1,8,00,80,00,00,7F,02,00,04,
145738719,0000045C,false,Rx,1,8,00,00,09,3E,00,00,00,00,
145738853,0000010C,false,Rx,1,2,14,00,00,00,00,00,00,00,
145739002,00000549,false,Rx,1,2,14,FF,00,00,00,00,00,00,
145739130,00000547,false,Rx,1,2,14,FF,00,00,00,00,00,00,
145739264,0000054B,false,Rx,1,2,14,FF,00,00,00,00,00,00,
145757130,0000042C,false,Rx,1,8,00,60,00,00,20,00,00,00,
145757376,0000043C,false,Rx,1,8,00,60,00,00,20,00,00,00,
145757625,0000044C,false,Rx,1,8,00,60,00,00,20,00,00,00,
145796595,00000207,false,Rx,1,8,00,00,C0,FF,68,01,14,00,
145796828,00000227,false,Rx,1,8,47,03,B6,00,17,00,3A,B8,
145797076,00000237,false,Rx,1,8,3D,41,00,17,00,00,00,00,
145797315,00000209,false,Rx,1,8,00,00,C0,FF,68,01,14,00,
145797549,00000229,false,Rx,1,8,54,03,9E,00,08,00,3A,B8,
145797790,00000239,false,Rx,1,8,3E,41,00,17,00,00,00,00,
145798037,0000020B,false,Rx,1,8,00,00,C0,FF,68,01,14,00,
145798271,0000022B,false,Rx,1,8,1B,03,8E,00,10,00,3A,B8,
145798518,0000023B,false,Rx,1,8,3D,41,00,17,00,00,00,00,
145798751,00000247,false,Rx,1,8,66,7D,89,03,00,00,26,00,
145798985,00000249,false,Rx,1,8,66,7D,89,03,00,00,26,00,
145799224,0000024B,false,Rx,1,8,66,7D,89,03,00,00,26,00,
145799457,00000717,false,Rx,1,8,0F,00,CD,01,B6,26,00,00,
145799700,00000719,false,Rx,1,8,0E,00,00,02,06,0E,00,00,
145799940,0000071B,false,Rx,1,8,0C,01,00,04,04,06,01,00,
145806418,00000217,false,Rx,1,8,00,00,7F,00,80,02,00,04,
145806943,00000219,false,Rx,1,8,00,C0,7F,00,83,02,00,04,
145807739,0000021B,false,Rx,1,8,00,80,00,00,7F,02,00,04,
145838719,0000045C,false,Rx,1,8,00,00,09,3E,00,00,00,00,
145857134,0000042C,false,Rx,1,8,00,60,00,00,20,00,00,00,
145857374,0000043C,false,Rx,1,8,00,60,00,00,20,00,00,00,
145857629,0000044C,false,Rx,1,8,00,60,00,00,20,00,00,00,
145896576,00000207,false,Rx,1,8,00,00,00,00,68,01,14,00,
145896808,00000227,false,Rx,1,8,4A,03,BA,00,0A,00,3A,B8,
145897055,00000237,false,Rx,1,8,3D,41,00,17,00,00,00,00,
145897304,00000209,false,Rx,1,8,00,00,00,00,68,01,14,00,
145897536,00000229,false,Rx,1,8,5B,03,9D,00,11,00,3A,B8,
145897777,00000239,false,Rx,1,8,3E,41,00,17,00,00,00,00,
145898018,0000020B,false,Rx,1,8,00,00,C0,FF,68,01,14,00,
145898258,0000022B,false,Rx,1,8,29,03,8D,00,12,00,3A,B8,
145898505,0000023B,false,Rx,1,8,3D,41,00,17,00,00,00,00,
145898738,00000247,false,Rx,1,8,66,7D,89,03,00,00,26,00,
145898971,00000249,false,Rx,1,8,66,7D,89,03,00,00,26,00,
145899211,0000024B,false,Rx,1,8,66,7D,89,03,00,00,26,00,
145899451,00000717,false,Rx,1,8,10,F9,0F,00,18,00,00,00,
145899686,00000719,false,Rx,1,8,0F,00,CD,01,03,27,00,00,
145899933,0000071B,false,Rx,1,8,0E,00,00,02,06,0E,00,00,
145906382,00000217,false,Rx,1,8,00,00,7F,00,80,02,00,04,
145906938,00000219,false,Rx,1,8,00,C0,7F,00,83,02,00,04,
145907719,0000021B,false,Rx,1,8,00,80,00,00,7F,02,00,04,
145938720,0000045C,false,Rx,1,8,00,00,09,3E,00,00,00,00,
145938854,0000010C,false,Rx,1,2,15,00,00,00,00,00,00,00,
145939003,00000547,false,Rx,1,2,15,FF,00,00,00,00,00,00,
145939137,00000549,false,Rx,1,2,15,FF,00,00,00,00,00,00,
145939271,0000054B,false,Rx,1,2,15,FF,00,00,00,00,00,00,
145957135,0000042C,false,Rx,1,8,00,60,00,00,20,00,00,00,
145957381,0000043C,false,Rx,1,8,00,60,00,00,20,00,00,00,
145957629,0000044C,false,Rx,1,8,00,60,00,00,20,00,00,00,
145996558,00000207,false,Rx,1,8,00,00,00,00,68,01,14,00,
145996798,00000227,false,Rx,1,8,53,03,B1,00,16,00,3A,B8,
145997037,00000237,false,Rx,1,8,3D,41,00,17,00,00,00,00,
145997286,00000209,false,Rx,1,8,00,00,C0,FF,68,01,14,00,
145997518,00000229,false,Rx,1,8,62,03,A1,00,07,00,3A,B8,
145997759,00000239,false,Rx,1,8,3E,41,00,17,00,00,00,00,
145998000,0000020B,false,Rx,1,8,00,00,C0,FF,68,01,14,00,
145998240,0000022B,false,Rx,1,8,29,03,87,00,12,00,3A,B8,
145998488,0000023B,false,Rx,1,8,3D,41,00,17,00,00,00,00,
145998721,00000247,false,Rx,1,8,66,7D,89,03,00,00,26,00,
145998954,00000249,false,Rx,1,8,66,7D,89,03,00,00,26,00,
145999193,0000024B,false,Rx,1,8,66,7D,89,03,00,00,26,00,
145999427,00000717,false,Rx,1,8,11,00,7A,FF,00,00,02,02,
145999675,00000719,false,Rx,1,8,10,FE,0F,00,17,00,00,00,
145999915,0000071B,false,Rx,1,8,0F,00,CD,01,A8,26,00,00,
146006382,00000217,false,Rx,1,8,00,00,7F,00,80,02,00,04,
146006906,00000219,false,Rx,1,8,00,C0,7F,00,83,02,00,04,
146007724,0000021B,false,Rx,1,8,00,80,00,00,7F,02,00,04,
146038720,0000045C,false,Rx,1,8,00,00,09,3E,00,00,00,00,
146057127,0000042C,false,Rx,1,8,00,60,00,00,20,00,00,00,
146057373,0000043C,false,Rx,1,8,00,60,00,00,20,00,00,00,
146057628,0000044C,false,Rx,1,8,00,60,00,00,20,00,00,00,
146096456,00000367,false,Rx,1,8,00,00,00,00,00,00,00,00,
146096704,00000207,false,Rx,1,8,00,00,00,00,68,01,14,00,
146096937,00000227,false,Rx,1,8,5A,03,B2,00,13,00,3A,B8,
146097177,00000209,false,Rx,1,8,00,00,C0,FF,68,01,14,00,
146097409,00000229,false,Rx,1,8,68,03,9D,00,0A,00,3A,B8,
146097657,00000237,false,Rx,1,8,3D,41,00,17,00,00,00,00,
146097899,0000020B,false,Rx,1,8,00,00,C0,FF,68,01,14,00,
146098131,0000022B,false,Rx,1,8,3A,03,93,00,07,00,3A,B8,
146098379,00000239,false,Rx,1,8,3E,41,00,17,00,00,00,00,
146098626,0000023B,false,Rx,1,8,3D,41,00,17,00,00,00,00,
146098860,00000247,false,Rx,1,8,66,7D,89,03,00,00,26,00,
146099092,00000249,false,Rx,1,8,66,7D,89,03,00,00,26,00,
146099333,0000024B,false,Rx,1,8,66,7D,89,03,00,00,26,00,
146099573,00000717,false,Rx,1,8,12,40,29,00,27,00,27,00,
146099806,00000719,false,Rx,1,8,11,00,89,FF,00,00,02,02,
146100047,0000071B,false,Rx,1,8,10,05,00,00,15,00,00,00,
146106334,00000217,false,Rx,1,8,00,00,7F,00,80,02,00,04,
146106581,00000377,false,Rx,1,8,00,00,00,00,00,00,00,00,
146106897,00000219,false,Rx,1,8,00,C0,7F,00,83,02,00,04,
146107685,0000021B,false,Rx,1,8,00,80,00,00,7F,02,00,04,
146116447,00000347,false,Rx,1,8,00,00,00,00,00,08,00,00,
146126444,00000357,false,Rx,1,8,00,00,00,00,00,00,00,00,
146136449,00000327,false,Rx,1,8,00,00,00,00,00,00,00,00,
146138716,0000045C,false,Rx,1,8,00,00,09,3E,00,00,00,00,
146138850,0000010C,false,Rx,1,2,16,00,00,00,00,00,00,00,
146138991,00000547,false,Rx,1,2,16,FF,00,00,00,00,00,00,
146139125,00000549,false,Rx,1,2,16,FF,00,00,00,00,00,00,
146139260,0000054B,false,Rx,1,2,16,FF,00,00,00,00,00,00,
146146444,00000337,false,Rx,1,8,00,00,00,00,00,00,00,00,
146157137,0000042C,false,Rx,1,8,00,60,00,00,20,00,00,00,
146157383,0000043C,false,Rx,1,8,00,60,00,00,20,00,00,00,
146157632,0000044C,false,Rx,1,8,00,60,00,00,20,00,00,00,
146196500,00000207,false,Rx,1,8,00,00,C0,FF,68,01,14,00,
146196732,00000227,false,Rx,1,8,63,03,B6,00,14,00,3A,B8,
146196981,00000237,false,Rx,1,8,3D,41,00,17,00,00,00,00,
146197213,00000247,false,Rx,1,8,66,7D,89,03,00,00,26,00,
146197453,00000209,false,Rx,1,8,00,00,C0,FF,68,01,14,00,
146197695,00000229,false,Rx,1,8,71,03,9A,00,08,00,3A,B8,
146197935,0000020B,false,Rx,1,8,00,00,C0,FF,68,01,14,00,
146198175,0000022B,false,Rx,1,8,3D,03,8E,00,02,00,3A,B8,
146198416,00000239,false,Rx,1,8,3E,41,00,17,00,00,00,00,
146198663,0000023B,false,Rx,1,8,3D,41,00,17,00,00,00,00,
146198895,00000249,false,Rx,1,8,66,7D,89,03,00,00,26,00,
146199137,0000024B,false,Rx,1,8,66,7D,89,03,00,00,26,00,
146199384,00000369,false,Rx,1,8,00,00,00,00,00,00,00,00,
146199631,00000717,false,Rx,1,8,13,00,00,00,00,00,00,00,
146199866,00000719,false,Rx,1,8,12,3F,26,00,27,00,26,00,
146200106,0000071B,false,Rx,1,8,11,00,95,FF,00,00,02,02,
146206304,00000217,false,Rx,1,8,00,00,7F,00,80,02,00,04,
146206851,00000219,false,Rx,1,8,00,C0,7F,00,83,02,00,04,
146207098,00000379,false,Rx,1,8,00,00,00,00,00,00,00,00,
146207677,0000021B,false,Rx,1,8,00,80,00,00,7F,02,00,04,
146216969,00000349,false,Rx,1,8,00,00,00,00,00,08,00,00,
146226966,00000359,false,Rx,1,8,00,00,00,00,00,00,00,00,
146236979,00000329,false,Rx,1,8,00,00,00,00,00,00,00,00,
146238719,0000045C,false,Rx,1,8,00,00,09,3E,00,00,00,00,
146246962,00000339,false,Rx,1,8,00,00,00,00,00,00,00,00,
146257132,0000042C,false,Rx,1,8,00,60,00,00,20,00,00,00,
146257378,0000043C,false,Rx,1,8,00,60,00,00,20,00,00,00,
146257627,0000044C,false,Rx,1,8,00,60,00,00,20,00,00,00,
146296476,00000207,false,Rx,1,8,00,00,C0,FF,68,01,14,00,
146296710,00000227,false,Rx,1,8,67,03,B2,00,04,00,3A,B8,
146296950,00000237,false,Rx,1,8,3D,41,00,17,00,00,00,00,
146297205,00000209,false,Rx,1,8,00,00,00,00,68,01,14,00,
146297438,00000229,false,Rx,1,8,80,03,99,00,0C,00,3A,B8,
146297679,00000239,false,Rx,1,8,3E,41,00,17,00,00,00,00,
146297919,00000247,false,Rx,1,8,66,7D,89,03,00,00,26,00,
146298160,0000020B,false,Rx,1,8,00,00,C0,FF,68,01,14,00,
146298393,0000022B,false,Rx,1,8,3F,03,95,00,07,00,3A,B8,
146298639,0000023B,false,Rx,1,8,3D,41,00,17,00,00,00,00,
146298880,00000249,false,Rx,1,8,66,7D,89,03,00,00,26,00,
146299114,0000024B,false,Rx,1,8,66,7D,89,03,00,00,26,00,
146299361,0000036B,false,Rx,1,8,00,00,00,00,00,00,00,00,
146299608,00000717,false,Rx,1,8,14,00,00,00,FB,FF,00,00,
146299858,00000719,false,Rx,1,8,13,00,00,00,00,00,00,00,
146300090,0000071B,false,Rx,1,8,12,3F,28,00,27,00,25,00,
146306311,00000217,false,Rx,1,8,00,00,7F,00,80,02,00,04,
146306828,00000219,false,Rx,1,8,00,C0,7F,00,83,02,00,04,
146307630,0000021B,false,Rx,1,8,00,80,00,00,7F,02,00,04,
146307879,0000037B,false,Rx,1,8,00,00,00,00,00,00,00,00,
146317754,0000034B,false,Rx,1,8,00,00,00,00,00,08,00,00,
146327750,0000035B,false,Rx,1,8,00,00,00,00,00,00,00,00,
146337748,0000032B,false,Rx,1,8,00,00,00,00,00,00,00,00,
146338714,0000045C,false,Rx,1,8,00,00,09,3E,00,00,00,00,
146338851,0000010C,false,Rx,1,2,17,00,00,00,00,00,00,00,
146338999,00000547,false,Rx,1,2,17,FF,00,00,00,00,00,00,
146339133,00000549,false,Rx,1,2,17,FF,00,00,00,00,00,00,
146339267,0000054B,false,Rx,1,2,17,FF,00,00,00,00,00,00,
146347747,0000033B,false,Rx,1,8,00,00,00,00,00,00,00,00,
146357130,0000042C,false,Rx,1,8,00,60,00,00,20,00,00,00,
146357378,0000043C,false,Rx,1,8,00,60,00,00,20,00,00,00,
146357625,0000044C,false,Rx,1,8,00,60,00,00,20,00,00,00,
146396458,00000207,false,Rx,1,8,00,00,C0,FF,68,01,14,00,
146396690,00000227,false,Rx,1,8,75,03,AB,00,08,00,3A,B8,
146396937,00000237,false,Rx,1,8,3D,41,00,17,00,00,00,00,
146397185,00000209,false,Rx,1,8,00,00,00,00,68,01,14,00,
146397418,00000229,false,Rx,1,8,80,03,9C,00,05,00,3A,B8,
146397667,00000239,false,Rx,1,8,3E,41,00,17,00,00,00,00,
146397907,0000020B,false,Rx,1,8,00,00,C0,FF,68,01,14,00,
146398140,0000022B,false,Rx,1,8,5D,03,9A,00,11,00,3A,B8,
146398388,0000023B,false,Rx,1,8,3D,41,00,17,00,00,00,00,
146398619,00000247,false,Rx,1,8,66,7D,89,03,00,00,26,00,
146398854,00000249,false,Rx,1,8,66,7D,89,03,00,00,26,00,
146399094,0000024B,false,Rx,1,8,66,7D,89,03,00,00,26,00,
146399342,00000719,false,Rx,1,8,14,00,00,00,0C,00,00,00,
146399583,0000071B,false,Rx,1,8,13,00,00,00,00,00,00,00,
146406255,00000217,false,Rx,1,8,00,00,7F,00,80,02,00,04,
146406832,00000219,false,Rx,1,8,00,C0,7F,00,83,02,00,04,
146407612,0000021B,false,Rx,1,8,00,80,00,00,7F,02,00,04,
146438712,0000045C,false,Rx,1,8,00,00,09,3E,00,00,00,00,
146457135,0000042C,false,Rx,1,8,00,60,00,00,20,00,00,00,
146457381,0000043C,false,Rx,1,8,00,60,00,00,20,00,00,00,
146457628,0000044C,false,Rx,1,8,00,60,00,00,20,00,00,00,
146496424,00000207,false,Rx,1,8,00,00,C0,FF,68,01,14,00,
146496664,00000227,false,Rx,1,8,76,03,AB,00,08,00,3A,B8,
146496904,00000237,false,Rx,1,8,3D,41,00,17,00,00,00,00,
146497145,00000209,false,Rx,1,8,00,00,C0,FF,68,01,14,00,
146497377,00000229,false,Rx,1,8,87,03,92,00,1A,00,3A,B8,
146497625,00000239,false,Rx,1,8,3E,41,00,17,00,00,00,00,
146497867,0000020B,false,Rx,1,8,00,00,C0,FF,68,01,14,00,
146498099,0000022B,false,Rx,1,8,62,03,92,00,0B,00,3A,B8,
146498347,0000023B,false,Rx,1,8,3D,41,00,17,00,00,00,00,
146498579,00000247,false,Rx,1,8,66,7D,89,03,00,00,26,00,
146498813,00000249,false,Rx,1,8,66,7D,89,03,00,00,26,00,
146499052,0000024B,false,Rx,1,8,66,7D,89,03,00,00,26,00,
146499292,00000717,false,Rx,1,8,16,00,00,00,00,00,85,39,
146499533,0000071B,false,Rx,1,8,14,00,00,00,F5,FF,00,00,
146506242,00000217,false,Rx,1,8,00,00,7F,00,80,02,00,04,
146506790,00000219,false,Rx,1,8,00,C0,7F,00,83,02,00,04,
146507614,0000021B,false,Rx,1,8,00,80,00,00,7F,02,00,04,
146538712,0000045C,false,Rx,1,8,00,00,09,3E,00,00,00,00,
146538846,0000010C,false,Rx,1,2,18,00,00,00,00,00,00,00,
146538995,00000549,false,Rx,1,2,18,FF,00,00,00,00,00,00,
146539129,00000547,false,Rx,1,2,18,FF,00,00,00,00,00,00,
146539263,0000054B,false,Rx,1,2,18,FF,00,00,00,00,00,00,
146557135,0000042C,false,Rx,1,8,00,60,00,00,20,00,00,00,
146557381,0000043C,false,Rx,1,8,00,60,00,00,20,00,00,00,
146557629,0000044C,false,Rx,1,8,00,60,00,00,20,00,00,00,
146596401,00000207,false,Rx,1,8,00,00,C0,FF,68,01,14,00,
146596640,00000227,false,Rx,1,8,7D,03,AA,00,04,00,3A,B8,
146596890,00000237,false,Rx,1,8,3D,41,00,17,00,00,00,00,
146597130,00000209,false,Rx,1,8,00,00,C0,FF,68,01,14,00,
146597362,00000229,false,Rx,1,8,96,03,8E,00,06,00,3A,B8,
146597602,00000239,false,Rx,1,8,3E,41,00,17,00,00,00,00,
146597844,0000020B,false,Rx,1,8,00,00,C0,FF,68,01,14,00,
146598076,0000022B,false,Rx,1,8,52,03,89,00,08,00,3A,B8,
146598324,0000023B,false,Rx,1,8,3D,41,00,17,00,00,00,00,
146598556,00000247,false,Rx,1,8,66,7D,89,03,00,00,26,00,
146598797,00000249,false,Rx,1,8,66,7D,89,03,00,00,26,00,
146599030,0000024B,false,Rx,1,8,66,7D,89,03,00,00,26,00,
146599271,00000717,false,Rx,1,8,17,00,02,60,00,00,40,01,
146599511,00000719,false,Rx,1,8,16,00,00,00,00,00,69,39,
146606229,00000217,false,Rx,1,8,00,00,7F,00,80,02,00,04,
146606760,00000219,false,Rx,1,8,00,C0,7F,00,83,02,00,04,
146607562,0000021B,false,Rx,1,8,00,80,00,00,7F,02,00,04,
146638714,0000045C,false,Rx,1,8,00,00,09,3E,00,00,00,00,
146657130,0000042C,false,Rx,1,8,00,60,00,00,20,00,00,00,
146657376,0000043C,false,Rx,1,8,00,60,00,00,20,00,00,00,
146657625,0000044C,false,Rx,1,8,00,60,00,00,20,00,00,00,
146696378,00000207,false,Rx,1,8,00,00,C0,FF,68,01,14,00,
146696617,00000227,false,Rx,1,8,81,03,AE,00,08,00,3A,B8,
146696859,00000237,false,Rx,1,8,3D,41,00,17,00,00,00,00,
146697099,00000209,false,Rx,1,8,00,00,C0,FF,68,01,14,00,
146697331,00000229,false,Rx,1,8,9B,03,97,00,08,00,3A,B8,
146697580,00000239,false,Rx,1,8,3E,41,00,17,00,00,00,00,
146697821,0000020B,false,Rx,1,8,00,00,C0,FF,68,01,14,00,
146698053,0000022B,false,Rx,1,8,68,03,96,00,0B,00,3A,B8,
146698302,0000023B,false,Rx,1,8,3D,41,00,17,00,00,00,00,
146698533,00000247,false,Rx,1,8,66,7D,89,03,00,00,26,00,
146698767,00000249,false,Rx,1,8,66,7D,89,03,00,00,26,00,
146699007,0000024B,false,Rx,1,8,66,7D,89,03,00,00,26,00,
146699248,00000717,false,Rx,1,8,18,00,66,06,00,00,00,00,
146699495,00000719,false,Rx,1,8,17,00,00,40,00,00,70,01,
146699736,0000071B,false,Rx,1,8,16,00,00,00,00,00,85,39,
146706193,00000217,false,Rx,1,8,00,00,7F,00,80,02,00,04,
146706763,00000219,false,Rx,1,8,00,C0,7F,00,83,02,00,04,
146707550,0000021B,false,Rx,1,8,00,80,00,00,7F,02,00,04,
146738716,0000045C,false,Rx,1,8,00,00,09,3E,00,00,00,00,
146738850,0000010C,false,Rx,1,2,19,00,00,00,00,00,00,00,
146738993,00000549,false,Rx,1,2,19,FF,00,00,00,00,00,00,
146739127,00000547,false,Rx,1,2,19,FF,00,00,00,00,00,00,
146739261,0000054B,false,Rx,1,2,19,FF,00,00,00,00,00,00,
146757129,0000042C,false,Rx,1,8,00,60,00,00,20,00,00,00,
146757375,0000043C,false,Rx,1,8,00,60,00,00,20,00,00,00,
146757624,0000044C,false,Rx,1,8,00,60,00,00,20,00,00,00,
146796401,00000207,false,Rx,1,8,00,00,00,00,68,01,14,00,
146796633,00000227,false,Rx,1,8,88,03,AF,00,04,00,3A,B8,
146796882,00000237,false,Rx,1,8,3D,41,00,17,00,00,00,00,
146797129,00000209,false,Rx,1,8,00,00,00,00,68,01,14,00,
146797362,00000229,false,Rx,1,8,A7,03,91,00,0B,00,3A,B8,
146797610,00000239,false,Rx,1,8,3E,41,00,17,00,00,00,00,
146797851,0000020B,false,Rx,1,8,00,00,00,00,68,01,14,00,
146798084,0000022B,false,Rx,1,8,78,03,8D,00,04,00,3A,B8,
146798333,0000023B,false,Rx,1,8,3D,41,00,17,00,00,00,00,
146798564,00000247,false,Rx,1,8,66,7D,89,03,00,00,26,00,
146798806,00000249,false,Rx,1,8,66,7D,89,03,00,00,26,00,
146799039,0000024B,false,Rx,1,8,66,7D,89,03,00,00,26,00,
146799286,00000717,false,Rx,1,8,19,00,00,00,00,00,00,00,
146799534,00000719,false,Rx,1,8,18,00,66,06,00,00,00,00,
146799776,0000071B,false,Rx,1,8,17,00,00,30,00,00,80,01,
146806188,00000217,false,Rx,1,8,00,00,7F,00,80,02,00,04,
146806721,00000219,false,Rx,1,8,00,C0,7F,00,83,02,00,04,
146807553,0000021B,false,Rx,1,8,00,80,00,00,7F,02,00,04,
146838722,0000045C,false,Rx,1,8,00,00,09,3E,00,00,00,00,
146857129,0000042C,false,Rx,1,8,00,60,00,00,20,00,00,00,
146857377,0000043C,false,Rx,1,8,00,60,00,00,20,00,00,00,
146857624,0000044C,false,Rx,1,8,00,60,00,00,20,00,00,00,
146896340,00000207,false,Rx,1,8,00,00,00,00,68,01,14,00,
146896573,00000227,false,Rx,1,8,8F,03,B1,00,04,00,3A,B8,
146896821,00000237,false,Rx,1,8,3D,41,00,17,00,00,00,00,
146897061,00000209,false,Rx,1,8,00,00,C0,FF,68,01,14,00,
146897302,00000229,false,Rx,1,8,A4,03,99,00,10,00,3A,B8,
146897542,00000239,false,Rx,1,8,3E,41,00,17,00,00,00,00,
146897783,0000020B,false,Rx,1,8,00,00,C0,FF,68,01,14,00,
146898024,0000022B,false,Rx,1,8,7A,03,90,00,03,00,3A,B8,
146898271,0000023B,false,Rx,1,8,3D,41,00,17,00,00,00,00,
146898503,00000247,false,Rx,1,8,66,7D,89,03,00,00,26,00,
146898737,00000249,false,Rx,1,8,66,7D,89,03,00,00,26,00,
146898977,0000024B,false,Rx,1,8,66,7D,89,03,00,00,26,00,
146899217,00000717,false,Rx,1,8,01,00,00,00,CC,0C,00,00,
146899464,00000719,false,Rx,1,8,19,00,00,00,00,00,00,00,
146899707,0000071B,false,Rx,1,8,18,00,66,06,00,00,00,00,
146906142,00000217,false,Rx,1,8,00,00,7F,00,80,02,00,04,
146906712,00000219,false,Rx,1,8,00,C0,7F,00,83,02,00,04,
146907499,0000021B,false,Rx,1,8,00,80,00,00,7F,02,00,04,
146938705,0000045C,false,Rx,1,8,00,00,09,3E,00,00,00,00,
146938839,0000010C,false,Rx,1,2,1A,00,00,00,00,00,00,00,
146938995,00000547,false,Rx,1,2,1A,FF,00,00,00,00,00,00,
146939122,00000549,false,Rx,1,2,1A,FF,00,00,00,00,00,00,
146939256,0000054B,false,Rx,1,2,1A,FF,00,00,00,00,00,00,
146957128,0000042C,false,Rx,1,8,00,60,00,00,20,00,00,00,
146957374,0000043C,false,Rx,1,8,00,60,00,00,20,00,00,00,
146957621,0000044C,false,Rx,1,8,00,60,00,00,20,00,00,00,
146996311,00000207,false,Rx,1,8,00,00,C0,FF,68,01,14,00,
146996542,00000227,false,Rx,1,8,9A,03,A7,00,0D,00,3A,B8,
146996790,00000237,false,Rx,1,8,3D,41,00,17,00,00,00,00,
146997039,00000209,false,Rx,1,8,00,00,00,00,68,01,14,00,
146997272,00000229,false,Rx,1,8,B4,03,91,00,0B,00,3A,B8,
146997511,00000239,false,Rx,1,8,3E,41,00,17,00,00,00,00,
146997760,0000020B,false,Rx,1,8,00,00,00,00,68,01,14,00,
146997993,0000022B,false,Rx,1,8,82,03,94,00,14,00,3A,B8,
146998241,0000023B,false,Rx,1,8,3D,41,00,17,00,00,00,00,
146998480,00000247,false,Rx,1,8,66,7D,89,03,00,00,26,00,
146998714,00000249,false,Rx,1,8,66,7D,89,03,00,00,26,00,
146998947,0000024B,false,Rx,1,8,66,7D,89,03,00,00,26,00,
146999194,00000717,false,Rx,1,8,02,00,00,00,00,00,00,00,
146999435,00000719,false,Rx,1,8,01,00,00,00,CC,0C,00,00,
146999684,0000071B,false,Rx,1,8,19,00,00,00,00,00,00,00,
147006119,00000217,false,Rx,1,8,00,00,7F,00,80,02,00,04,
147006674,00000219,false,Rx,1,8,00,C0,7F,00,83,02,00,04,
147007499,0000021B,false,Rx,1,8,00,80,00,00,7F,02,00,04,
147038707,0000045C,false,Rx,1,8,00,00,09,3E,00,00,00,00,
147057130,0000042C,false,Rx,1,8,00,60,00,00,20,00,00,00,
147057376,0000043C,false,Rx,1,8,00,60,00,00,20,00,00,00,
147057624,0000044C,false,Rx,1,8,00,60,00,00,20,00,00,00,
147096223,00000367,false,Rx,1,8,00,00,00,00,00,00,00,00,
147096470,00000207,false,Rx,1,8,00,00,00,00,68,01,14,00,
147096704,00000227,false,Rx,1,8,A3,03,AD,00,10,00,3A,B8,
147096952,00000209,false,Rx,1,8,00,00,00,00,68,01,14,00,
147097185,00000229,false,Rx,1,8,B3,03,96,00,0F,00,3A,B8,
147097432,00000237,false,Rx,1,8,3D,41,00,17,00,00,00,00,
147097674,0000020B,false,Rx,1,8,00,00,C0,FF,68,01,14,00,
147097907,0000022B,false,Rx,1,8,87,03,98,00,05,00,3A,B8,
147098154,00000239,false,Rx,1,8,3E,41,00,17,00,00,00,00,
147098401,0000023B,false,Rx,1,8,3D,41,00,17,00,00,00,00,
147098634,00000247,false,Rx,1,8,66,7D,89,03,00,00,26,00,
147098868,00000249,false,Rx,1,8,66,7D,89,03,00,00,26,00,
147099101,0000024B,false,Rx,1,8,66,7D,89,03,00,00,26,00,
147099349,00000719,false,Rx,1,8,02,00,00,00,00,00,00,00,
147099597,0000071B,false,Rx,1,8,01,00,00,00,CC,0C,00,00,
147106118,00000217,false,Rx,1,8,00,00,7F,00,80,02,00,04,
147106371,00000377,false,Rx,1,8,00,00,00,00,00,00,00,00,
147106649,00000219,false,Rx,1,8,00,C0,7F,00,83,02,00,04,
147107460,0000021B,false,Rx,1,8,00,80,00,00,7F,02,00,04,
147116218,00000347,false,Rx,1,8,00,00,00,00,00,08,00,00,
147126216,00000357,false,Rx,1,8,00,00,00,00,00,00,00,00,
147136213,00000327,false,Rx,1,8,00,00,00,00,00,00,00,00,
147138707,0000045C,false,Rx,1,8,00,00,09,3E,00,00,00,00,
147138841,0000010C,false,Rx,1,2,1B,00,00,00,00,00,00,00,
147138997,00000547,false,Rx,1,2,1B,FF,00,00,00,00,00,00,
147139125,00000549,false,Rx,1,2,1B,FF,00,00,00,00,00,00,
147139259,0000054B,false,Rx,1,2,1B,FF,00,00,00,00,00,00,
147146210,00000337,false,Rx,1,8,00,00,00,00,00,00,00,00,
147157128,0000042C,false,Rx,1,8,00,60,00,00,20,00,00,00,
147157374,0000043C,false,Rx,1,8,00,60,00,00,20,00,00,00,
147157622,0000044C,false,Rx,1,8,00,60,00,00,20,00,00,00,
147196266,00000207,false,Rx,1,8,00,00,C0,FF,68,01,14,00,
147196497,00000227,false,Rx,1,8,A9,03,A5,00,10,00,3A,B8,
147196747,00000237,false,Rx,1,8,3D,41,00,17,00,00,00,00,
147196979,00000247,false,Rx,1,8,66,7D,89,03,00,00,26,00,
147197219,00000209,false,Rx,1,8,00,00,C0,FF,68,01,14,00,
147197460,00000229,false,Rx,1,8,B8,03,92,00,07,00,3A,B8,
147197701,0000020B,false,Rx,1,8,00,00,00,00,68,01,14,00,
147197934,0000022B,false,Rx,1,8,92,03,90,00,27,00,3A,B8,
147198181,00000239,false,Rx,1,8,3E,41,00,17,00,00,00,00,
147198428,0000023B,false,Rx,1,8,3D,41,00,17,00,00,00,00,
147198661,00000249,false,Rx,1,8,66,7D,89,03,00,00,26,00,
147198902,0000024B,false,Rx,1,8,66,7D,89,03,00,00,26,00,
147199150,00000369,false,Rx,1,8,00,00,00,00,00,00,00,00,
147199390,00000717,false,Rx,1,8,04,00,00,00,0D,09,03,00,
147199638,0000071B,false,Rx,1,8,02,00,00,00,00,00,00,00,
147206067,00000217,false,Rx,1,8,00,00,7F,00,80,02,00,04,
147206658,00000219,false,Rx,1,8,00,C0,7F,00,83,02,00,04,
147206907,00000379,false,Rx,1,8,00,00,00,00,00,00,00,00,
147207440,0000021B,false,Rx,1,8,00,80,00,00,7F,02,00,04,
147216757,00000349,false,Rx,1,8,00,00,00,00,00,08,00,00,
147226755,00000359,false,Rx,1,8,00,00,00,00,00,00,00,00,
147236752,00000329,false,Rx,1,8,00,00,00,00,00,00,00,00,
147238708,0000045C,false,Rx,1,8,00,00,09,3E,00,00,00,00,
147246747,00000339,false,Rx,1,8,00,00,00,00,00,00,00,00,
147257129,0000042C,false,Rx,1,8,00,60,00,00,20,00,00,00,
147257376,0000043C,false,Rx,1,8,00,60,00,00,20,00,00,00,
147257623,0000044C,false,Rx,1,8,00,60,00,00,20,00,00,00,
147296260,00000207,false,Rx,1,8,00,00,C0,FF,68,01,14,00,
147296492,00000227,false,Rx,1,8,B0,03,A6,00,03,00,3A,B8,
147296741,00000237,false,Rx,1,8,3D,41,00,17,00,00,00,00,
147296981,00000209,false,Rx,1,8,00,00,C0,FF,68,01,14,00,
147297213,00000229,false,Rx,1,8,C7,03,9D,00,0A,00,3A,B8,
147297462,00000239,false,Rx,1,8,3E,41,00,17,00,00,00,00,
147297696,00000247,false,Rx,1,8,66,7D,89,03,00,00,26,00,
147297936,0000020B,false,Rx,1,8,00,00,C0,FF,68,01,14,00,
147298169,0000022B,false,Rx,1,8,96,03,8A,00,07,00,3A,B8,
147298416,0000023B,false,Rx,1,8,3D,41,00,17,00,00,00,00,
147298656,00000249,false,Rx,1,8,66,7D,89,03,00,00,26,00,
147298890,0000024B,false,Rx,1,8,66,7D,89,03,00,00,26,00,
147299137,0000036B,false,Rx,1,8,00,00,00,00,00,00,00,00,
147299385,00000717,false,Rx,1,8,05,00,00,00,00,00,00,00,
147299626,00000719,false,Rx,1,8,04,00,00,00,0D,09,05,00,
147306062,00000217,false,Rx,1,8,00,00,7F,00,80,02,00,04,
147306609,00000219,false,Rx,1,8,00,C0,7F,00,83,02,00,04,
147307442,0000021B,false,Rx,1,8,00,80,00,00,7F,02,00,04,
147307690,0000037B,false,Rx,1,8,00,00,00,00,00,00,00,00,
147317538,0000034B,false,Rx,1,8,00,00,00,00,00,08,00,00,
147327537,0000035B,false,Rx,1,8,00,00,00,00,00,00,00,00,
147337534,0000032B,false,Rx,1,8,00,00,00,00,00,00,00,00,
147338704,0000045C,false,Rx,1,8,00,00,09,3E,00,00,00,00,
147338840,0000010C,false,Rx,1,2,1C,00,00,00,00,00,00,00,
147338989,00000547,false,Rx,1,2,1C,FF,00,00,00,00,00,00,
147339115,00000549,false,Rx,1,2,1C,FF,00,00,00,00,00,00,
147339249,0000054B,false,Rx,1,2,1C,FF,00,00,00,00,00,00,
147347525,0000033B,false,Rx,1,8,00,00,00,00,00,00,00,00,
147357135,0000042C,false,Rx,1,8,00,60,00,00,20,00,00,00,
147357374,0000043C,false,Rx,1,8,00,60,00,00,20,00,00,00,
147357629,0000044C,false,Rx,1,8,00,60,00,00,20,00,00,00,
147396212,00000207,false,Rx,1,8,00,00,C0,FF,68,01,14,00,
147396445,00000227,false,Rx,1,8,B6,03,A5,00,04,00,3A,B8,
147396693,00000237,false,Rx,1,8,3D,41,00,17,00,00,00,00,
147396933,00000209,false,Rx,1,8,00,00,C0,FF,68,01,14,00,
147397167,00000229,false,Rx,1,8,D5,03,9B,00,0D,00,3A,B8,
147397414,00000239,false,Rx,1,8,3E,41,00,17,00,00,00,00,
147397654,0000020B,false,Rx,1,8,00,00,C0,FF,68,01,14,00,
147397887,0000022B,false,Rx,1,8,98,03,93,00,06,00,3A,B8,
147398136,0000023B,false,Rx,1,8,3D,41,00,17,00,00,00,00,
147398367,00000247,false,Rx,1,8,66,7D,89,03,00,00,26,00,
147398607,00000249,false,Rx,1,8,66,7D,89,03,00,00,26,00,
147398842,0000024B,false,Rx,1,8,66,7D,89,03,00,00,26,00,
147399082,00000717,false,Rx,1,8,06,00,09,39,00,08,00,40,
147399329,00000719,false,Rx,1,8,05,00,00,00,00,00,00,00,
147399570,0000071B,false,Rx,1,8,04,00,00,00,0D,09,01,00,
147406021,00000217,false,Rx,1,8,00,00,7F,00,80,02,00,04,
147406605,00000219,false,Rx,1,8,00,C0,7F,00,83,02,00,04,
147407385,0000021B,false,Rx,1,8,00,80,00,00,7F,02,00,04,
147438705,0000045C,false,Rx,1,8,00,00,09,3E,00,00,00,00,
147457134,0000042C,false,Rx,1,8,00,60,00,00,20,00,00,00,
147457373,0000043C,false,Rx,1,8,00,60,00,00,20,00,00,00,
147457628,0000044C,false,Rx,1,8,00,60,00,00,20,00,00,00,
147496202,00000207,false,Rx,1,8,00,00,C0,FF,68,01,14,00,
147496434,00000227,false,Rx,1,8,CC,03,AA,00,05,00,3A,B8,
147496677,00000237,false,Rx,1,8,3D,41,00,17,00,00,00,00,
147496916,00000209,false,Rx,1,8,00,00,C0,FF,68,01,14,00,
147497150,00000229,false,Rx,1,8,D6,03,9D,00,06,00,3A,B8,
147497397,00000239,false,Rx,1,8,3E,41,00,17,00,00,00,00,
147497645,0000020B,false,Rx,1,8,00,00,00,00,68,01,14,00,
147497872,0000022B,false,Rx,1,8,9C,03,8E,00,0D,00,3A,B8,
147498119,0000023B,false,Rx,1,8,3D,41,00,17,00,00,00,00,
147498358,00000247,false,Rx,1,8,66,7D,89,03,00,00,26,00,
147498592,00000249,false,Rx,1,8,66,7D,89,03,00,00,26,00,
147498826,0000024B,false,Rx,1,8,66,7D,89,03,00,00,26,00,
147499066,00000717,false,Rx,1,8,07,00,00,00,02,25,00,00,
147499307,00000719,false,Rx,1,8,06,00,4D,39,00,08,00,40,
147499554,0000071B,false,Rx,1,8,05,00,00,00,00,00,00,00,
147506006,00000217,false,Rx,1,8,00,00,7F,00,80,02,00,04,
147506560,00000219,false,Rx,1,8,00,C0,7F,00,83,02,00,04,
147507393,0000021B,false,Rx,1,8,00,80,00,00,7F,02,00,04,
147538705,0000045C,false,Rx,1,8,00,00,09,3E,00,00,00,00,
147538839,0000010C,false,Rx,1,2,1D,00,00,00,00,00,00,00,
147538988,0000054B,false,Rx,1,2,1D,FF,00,00,00,00,00,00,
147539114,00000547,false,Rx,1,2,1D,FF,00,00,00,00,00,00,
147539249,00000549,false,Rx,1,2,1D,FF,00,00,00,00,00,00,
147557127,0000042C,false,Rx,1,8,00,60,00,00,20,00,00,00,
147557373,0000043C,false,Rx,1,8,00,60,00,00,20,00,00,00,
147557621,0000044C,false,Rx,1,8,00,60,00,00,20,00,00,00,
147596175,00000207,false,Rx,1,8,00,00,C0,FF,68,01,14,00,
147596406,00000227,false,Rx,1,8,C9,03,AE,00,09,00,3A,B8,
147596646,00000237,false,Rx,1,8,3D,41,00,17,00,00,00,00,
147596888,00000209,false,Rx,1,8,00,00,C0,FF,68,01,14,00,
147597128,00000229,false,Rx,1,8,DB,03,A4,00,08,00,3A,B8,
147597375,00000239,false,Rx,1,8,3E,41,00,17,00,00,00,00,
147597617,0000020B,false,Rx,1,8,00,00,00,00,68,01,14,00,
147597850,0000022B,false,Rx,1,8,A8,03,87,00,0F,00,3A,B8,
147598097,0000023B,false,Rx,1,8,3D,41,00,17,00,00,00,00,
147598329,00000247,false,Rx,1,8,66,7D,89,03,00,00,26,00,
147598570,00000249,false,Rx,1,8,66,7D,89,03,00,00,26,00,
147598803,0000024B,false,Rx,1,8,66,7D,89,03,00,00,26,00,
147599043,00000717,false,Rx,1,8,08,00,00,00,8D,39,00,00,
147599284,00000719,false,Rx,1,8,07,00,00,00,02,25,00,00,
147599524,0000071B,false,Rx,1,8,06,00,71,39,00,08,00,40,
147605996,00000217,false,Rx,1,8,00,00,7F,00,80,02,00,04,
147606550,00000219,false,Rx,1,8,00,C0,7F,00,83,02,00,04,
147607345,0000021B,false,Rx,1,8,00,80,00,00,7F,02,00,04,
147638702,0000045C,false,Rx,1,8,00,00,09,3E,00,00,00,00,
147657131,0000042C,false,Rx,1,8,00,60,00,00,20,00,00,00,
147657378,0000043C,false,Rx,1,8,00,60,00,00,20,00,00,00,
147657626,0000044C,false,Rx,1,8,00,60,00,00,20,00,00,00,
147696162,00000207,false,Rx,1,8,00,00,00,00,68,01,14,00,
147696401,00000227,false,Rx,1,8,D2,03,AF,00,10,00,3A,B8,
147696641,00000237,false,Rx,1,8,3D,41,00,17,00,00,00,00,
147696883,00000209,false,Rx,1,8,00,00,C0,FF,68,01,14,00,
147697123,00000229,false,Rx,1,8,E1,03,A0,00,11,00,3A,B8,
147697363,00000239,false,Rx,1,8,3E,41,00,17,00,00,00,00,
147697604,0000020B,false,Rx,1,8,00,00,C0,FF,68,01,14,00,
147697839,0000022B,false,Rx,1,8,A5,03,8D,00,0B,00,3A,B8,
147698086,0000023B,false,Rx,1,8,3D,41,00,17,00,00,00,00,
147698321,00000247,false,Rx,1,8,66,7D,89,03,00,00,26,00,
147698553,00000249,false,Rx,1,8,66,7D,89,03,00,00,26,00,
147698794,0000024B,false,Rx,1,8,66,7D,89,03,00,00,26,00,
147699035,00000717,false,Rx,1,8,09,00,65,39,00,00,00,00,
147699275,00000719,false,Rx,1,8,08,00,00,00,8D,39,00,00,
147699515,0000071B,false,Rx,1,8,07,00,00,00,02,25,00,00,
147705951,00000217,false,Rx,1,8,00,00,7F,00,80,02,00,04,
147706541,00000219,false,Rx,1,8,00,C0,7F,00,83,02,00,04,
147707321,0000021B,false,Rx,1,8,00,80,00,00,7F,02,00,04,
147738708,0000045C,false,Rx,1,8,00,00,09,3E,00,00,00,00,
147738835,0000010C,false,Rx,1,2,1E,00,00,00,00,00,00,00,
147738993,00000547,false,Rx,1,2,1E,FF,00,00,00,00,00,00,
147739119,00000549,false,Rx,1,2,1E,FF,00,00,00,00,00,00,
147739253,0000054B,false,Rx,1,2,1E,FF,00,00,00,00,00,00,
147757129,0000042C,false,Rx,1,8,00,60,00,00,20,00,00,00,
147757377,0000043C,false,Rx,1,8,00,60,00,00,20,00,00,00,
147757624,0000044C,false,Rx,1,8,00,60,00,00,20,00,00,00,
147796137,00000207,false,Rx,1,8,00,00,C0,FF,68,01,14,00,
147796369,00000227,false,Rx,1,8,DC,03,B1,00,06,00,3A,B8,
147796610,00000237,false,Rx,1,8,3D,41,00,17,00,00,00,00,
147796858,00000209,false,Rx,1,8,00,00,C0,FF,68,01,14,00,
147797090,00000229,false,Rx,1,8,ED,03,98,00,08,00,3A,B8,
147797332,00000239,false,Rx,1,8,3E,41,00,17,00,00,00,00,
147797579,0000020B,false,Rx,1,8,00,00,C0,FF,68,01,14,00,
147797805,0000022B,false,Rx,1,8,BB,03,8D,00,0D,00,3A,B8,
147798054,0000023B,false,Rx,1,8,3D,41,00,17,00,00,00,00,
147798285,00000247,false,Rx,1,8,66,7D,89,03,00,00,26,00,
147798525,00000249,false,Rx,1,8,66,7D,89,03,00,00,26,00,
147798758,0000024B,false,Rx,1,8,66,7D,89,03,00,00,26,00,
147799007,00000717,false,Rx,1,8,0A,00,00,00,00,00,00,00,
147799247,00000719,false,Rx,1,8,09,00,65,39,00,00,00,00,
147799487,0000071B,false,Rx,1,8,08,00,00,00,71,39,00,00,
147805946,00000217,false,Rx,1,8,00,00,7F,00,80,02,00,04,
147806500,00000219,false,Rx,1,8,00,C0,7F,00,83,02,00,04,
147807325,0000021B,false,Rx,1,8,00,80,00,00,7F,02,00,04,
147838706,0000045C,false,Rx,1,8,00,00,09,3E,00,00,00,00,
147857129,0000042C,false,Rx,1,8,00,60,00,00,20,00,00,00,
147857376,0000043C,false,Rx,1,8,00,60,00,00,20,00,00,00,
147857623,0000044C,false,Rx,1,8,00,60,00,00,20,00,00,00,
147896106,00000207,false,Rx,1,8,00,00,C0,FF,68,01,14,00,
147896339,00000227,false,Rx,1,8,E1,03,AF,00,07,00,3A,B8,
147896586,00000237,false,Rx,1,8,3D,41,00,17,00,00,00,00,
147896827,00000209,false,Rx,1,8,00,00,C0,FF,68,01,14,00,
147897059,00000229,false,Rx,1,8,F5,03,9A,00,06,00,3A,B8,
147897300,00000239,false,Rx,1,8,3E,41,00,17,00,00,00,00,
147897548,0000020B,false,Rx,1,8,00,00,C0,FF,68,01,14,00,
147897781,0000022B,false,Rx,1,8,BF,03,87,00,12,00,3A,B8,
147898022,0000023B,false,Rx,1,8,3D,41,00,17,00,00,00,00,
147898261,00000247,false,Rx,1,8,66,7D,89,03,00,00,26,00,
147898494,00000249,false,Rx,1,8,66,7D,89,03,00,00,26,00,
147898728,0000024B,false,Rx,1,8,66,7D,89,03,00,00,26,00,
147898976,00000717,false,Rx,1,8,0B,00,00,00,00,00,00,00,
147899223,00000719,false,Rx,1,8,0A,00,00,00,00,00,00,00,
147899464,0000071B,false,Rx,1,8,09,00,71,39,00,00,00,00,
147905908,00000217,false,Rx,1,8,00,00,7F,00,80,02,00,04,
147906484,00000219,false,Rx,1,8,00,C0,7F,00,83,02,00,04,
147907280,0000021B,false,Rx,1,8,00,80,00,00,7F,02,00,04,
147938705,0000045C,false,Rx,1,8,00,00,09,3E,00,00,00,00,
147938839,0000010C,false,Rx,1,2,1F,00,00,00,00,00,00,00,
147939002,0000054B,false,Rx,1,2,1F,FF,00,00,00,00,00,00,
147939136,00000547,false,Rx,1,2,1F,FF,00,00,00,00,00,00,
147939270,00000549,false,Rx,1,2,1F,FF,00,00,00,00,00,00,
147957127,0000042C,false,Rx,1,8,00,60,00,00,20,00,00,00,
147957373,0000043C,false,Rx,1,8,00,60,00,00,20,00,00,00,
147957621,0000044C,false,Rx,1,8,00,60,00,00,20,00,00,00,
147996079,00000207,false,Rx,1,8,00,00,C0,FF,68,01,14,00,
147996312,00000227,false,Rx,1,8,E0,03,B0,00,08,00,3A,B8,
147996559,00000237,false,Rx,1,8,3D,41,00,17,00,00,00,00,
147996801,00000209,false,Rx,1,8,00,00,C0,FF,68,01,14,00,
147997042,00000229,false,Rx,1,8,00,04,95,00,02,00,3A,B8,
147997282,00000239,false,Rx,1,8,3E,41,00,17,00,00,00,00,
147997529,0000020B,false,Rx,1,8,00,00,C0,FF,68,01,14,00,
147997758,0000022B,false,Rx,1,8,BA,03,8B,00,09,00,3A,B8,
147998005,0000023B,false,Rx,1,8,3D,41,00,17,00,00,00,00,
147998236,00000247,false,Rx,1,8,66,7D,89,03,00,00,26,00,
147998476,00000249,false,Rx,1,8,66,7D,89,03,00,00,26,00,
147998711,0000024B,false,Rx,1,8,66,7D,89,03,00,00,26,00,
147998951,00000717,false,Rx,1,8,0C,01,00,04,04,06,01,00,
147999198,00000719,false,Rx,1,8,0B,00,00,00,00,00,00,00,
147999439,0000071B,false,Rx,1,8,0A,00,00,00,00,00,00,00,
148005874,00000217,false,Rx,1,8,00,00,7F,00,80,02,00,04,
148006473,00000219,false,Rx,1,8,00,C0,7F,00,83,02,00,04,
148007276,0000021B,false,Rx,1,8,00,80,00,00,7F,02,00,04,
148038702,0000045C,false,Rx,1,8,00,00,09,3E,00,00,00,00,
148057131,0000042C,false,Rx,1,8,00,60,00,00,20,00,00,00,
148057378,0000043C,false,Rx,1,8,00,60,00,00,20,00,00,00,
148057626,0000044C,false,Rx,1,8,00,60,00,00,20,00,00,00,
148095984,00000367,false,Rx,1,8,00,00,00,00,00,00,00,00,
148096231,00000207,false,Rx,1,8,00,00,00,00,68,01,14,00,
148096464,00000227,false,Rx,1,8,EF,03,A2,00,06,00,3A,B8,
148096712,00000209,false,Rx,1,8,00,00,00,00,68,01,14,00,
148096946,00000229,false,Rx,1,8,00,04,94,00,14,00,3A,B8,
148097193,00000237,false,Rx,1,8,3D,41,00,17,00,00,00,00,
148097433,0000020B,false,Rx,1,8,00,00,C0,FF,68,01,14,00,
148097676,0000022B,false,Rx,1,8,DD,03,91,00,07,00,3A,B8,
148097915,00000239,false,Rx,1,8,3E,41,00,17,00,00,00,00,
148098162,0000023B,false,Rx,1,8,3D,41,00,17,00,00,00,00,
148098395,00000247,false,Rx,1,8,66,7D,89,03,00,00,26,00,
148098635,00000249,false,Rx,1,8,66,7D,89,03,00,00,26,00,
148098869,0000024B,false,Rx,1,8,66,7D,89,03,00,00,26,00,
148099110,00000717,false,Rx,1,8,0E,00,00,02,66,17,00,00,
148099349,00000719,false,Rx,1,8,0C,01,00,04,04,06,01,00,
148099597,0000071B,false,Rx,1,8,0B,00,00,00,00,00,00,00,
148105873,00000217,false,Rx,1,8,00,00,7F,00,80,02,00,04,
148106128,00000377,false,Rx,1,8,00,00,00,00,00,00,00,00,
148106435,00000219,false,Rx,1,8,00,C0,7F,00,83,02,00,04,
148107238,0000021B,false,Rx,1,8,00,80,00,00,7F,02,00,04,
148115973,00000347,false,Rx,1,8,00,00,00,00,00,08,00,00,
148125972,00000357,false,Rx,1,8,00,00,00,00,00,00,00,00,
148135969,00000327,false,Rx,1,8,00,00,00,00,00,00,00,00,
148138703,0000045C,false,Rx,1,8,00,00,09,3E,00,00,00,00,
148138837,0000010C,false,Rx,1,2,20,00,00,00,00,00,00,00,
148138986,00000549,false,Rx,1,2,20,FF,00,00,00,00,00,00,
148139121,00000547,false,Rx,1,2,20,FF,00,00,00,00,00,00,
148139255,0000054B,false,Rx,1,2,20,FF,00,00,00,00,00,00,
148145964,00000337,false,Rx,1,8,00,00,00,00,00,00,00,00,
148157132,0000042C,false,Rx,1,8,00,60,00,00,20,00,00,00,
148157378,0000043C,false,Rx,1,8,00,60,00,00,20,00,00,00,
148157627,0000044C,false,Rx,1,8,00,60,00,00,20,00,00,00,
148196045,00000207,false,Rx,1,8,00,00,00,00,68,01,14,00,
148196276,00000227,false,Rx,1,8,F1,03,AB,00,02,00,3A,B8,
148196523,00000237,false,Rx,1,8,3D,41,00,17,00,00,00,00,
148196759,00000247,false,Rx,1,8,66,7D,89,03,00,00,26,00,
148197006,00000209,false,Rx,1,8,00,00,00,00,68,01,14,00,
148197238,00000229,false,Rx,1,8,06,04,97,00,0C,00,3A,B8,
148197487,0000020B,false,Rx,1,8,00,00,C0,FF,68,01,14,00,
148197721,0000022B,false,Rx,1,8,D4,03,8B,00,06,00,3A,B8,
148197961,00000239,false,Rx,1,8,3E,41,00,17,00,00,00,00,
148198208,0000023B,false,Rx,1,8,3D,41,00,17,00,00,00,00,
148198441,00000249,false,Rx,1,8,66,7D,89,03,00,00,26,00,
148198682,0000024B,false,Rx,1,8,66,7D,89,03,00,00,26,00,
148198930,00000369,false,Rx,1,8,00,00,00,00,00,00,00,00,
148199163,00000717,false,Rx,1,8,0F,00,CD,01,23,24,00,00,
148199403,00000719,false,Rx,1,8,0E,00,00,02,66,17,00,00,
148199642,0000071B,false,Rx,1,8,0C,01,00,04,04,06,01,00,
148205835,00000217,false,Rx,1,8,00,00,7F,00,80,02,00,04,
148206426,00000219,false,Rx,1,8,00,C0,7F,00,83,02,00,04,
148206676,00000379,false,Rx,1,8,00,00,00,00,00,00,00,00,
148207207,0000021B,false,Rx,1,8,00,80,00,00,7F,02,00,04,
148216537,00000349,false,Rx,1,8,00,00,00,00,00,08,00,00,
148226534,00000359,false,Rx,1,8,00,00,00,00,00,00,00,00,
148236531,00000329,false,Rx,1,8,00,00,00,00,00,00,00,00,
148238707,0000045C,false,Rx,1,8,00,00,09,3E,00,00,00,00,
148246527,00000339,false,Rx,1,8,00,00,00,00,00,00,00,00,
148257129,0000042C,false,Rx,1,8,00,60,00,00,20,00,00,00,
148257376,0000043C,false,Rx,1,8,00,60,00,00,20,00,00,00,
148257623,0000044C,false,Rx,1,8,00,60,00,00,20,00,00,00,
148296017,00000207,false,Rx,1,8,00,00,00,00,68,01,14,00,
148296248,00000227,false,Rx,1,8,F5,03,A5,00,0A,00,3A,B8,
148296497,00000237,false,Rx,1,8,3D,41,00,17,00,00,00,00,
148296737,00000209,false,Rx,1,8,00,00,C0,FF,68,01,14,00,
148296970,00000229,false,Rx,1,8,0F,04,91,00,0E,00,3A,B8,
148297217,00000239,false,Rx,1,8,3E,41,00,17,00,00,00,00,
148297451,00000247,false,Rx,1,8,66,7D,89,03,00,00,26,00,
148297692,0000020B,false,Rx,1,8,00,00,C0,FF,68,01,14,00,
148297924,0000022B,false,Rx,1,8,D7,03,8C,00,0B,00,3A,B8,
148298172,0000023B,false,Rx,1,8,3D,41,00,17,00,00,00,00,
148298404,00000249,false,Rx,1,8,66,7D,89,03,00,00,26,00,
148298644,0000024B,false,Rx,1,8,66,7D,89,03,00,00,26,00,
148298887,0000036B,false,Rx,1,8,00,00,00,00,00,00,00,00,
148299134,00000717,false,Rx,1,8,10,FA,0F,00,18,00,00,00,
148299374,00000719,false,Rx,1,8,0F,00,CD,01,74,24,00,00,
148299608,0000071B,false,Rx,1,8,0E,00,00,02,66,17,00,00,
148305806,00000217,false,Rx,1,8,00,00,7F,00,80,02,00,04,
148306396,00000219,false,Rx,1,8,00,C0,7F,00,83,02,00,04,
148307215,0000021B,false,Rx,1,8,00,80,00,00,7F,02,00,04,
148307462,0000037B,false,Rx,1,8,00,00,00,00,00,00,00,00,
148317311,0000034B,false,Rx,1,8,00,00,00,00,00,08,00,00,
148327308,0000035B,false,Rx,1,8,00,00,00,00,00,00,00,00,
148337313,0000032B,false,Rx,1,8,00,00,00,00,00,00,00,00,
148338708,0000045C,false,Rx,1,8,00,00,09,3E,00,00,00,00,
148338835,0000010C,false,Rx,1,2,21,00,00,00,00,00,00,00,
148338992,00000547,false,Rx,1,2,21,FF,00,00,00,00,00,00,
148339126,00000549,false,Rx,1,2,21,FF,00,00,00,00,00,00,
148339259,0000054B,false,Rx,1,2,21,FF,00,00,00,00,00,00,
148347304,0000033B,false,Rx,1,8,00,00,00,00,00,00,00,00,
148357126,0000042C,false,Rx,1,8,00,60,00,00,20,00,00,00,
148357374,0000043C,false,Rx,1,8,00,60,00,00,20,00,00,00,
148357621,0000044C,false,Rx,1,8,00,60,00,00,20,00,00,00,
148395986,00000207,false,Rx,1,8,00,00,00,00,68,01,14,00,
148396224,00000227,false,Rx,1,8,FD,03,A6,00,04,00,3A,B8,
148396466,00000237,false,Rx,1,8,3D,41,00,17,00,00,00,00,
148396707,00000209,false,Rx,1,8,00,00,C0,FF,68,01,14,00,
148396946,00000229,false,Rx,1,8,1A,04,8E,00,05,00,3A,B8,
148397187,00000239,false,Rx,1,8,3E,41,00,17,00,00,00,00,
148397435,0000020B,false,Rx,1,8,00,00,C0,FF,68,01,14,00,
148397670,0000022B,false,Rx,1,8,EA,03,8D,00,05,00,3A,B8,
148397911,0000023B,false,Rx,1,8,3D,41,00,17,00,00,00,00,
148398142,00000247,false,Rx,1,8,66,7D,89,03,00,00,26,00,
148398382,00000249,false,Rx,1,8,66,7D,89,03,00,00,26,00,
148398616,0000024B,false,Rx,1,8,66,7D,89,03,00,00,26,00,
148398856,00000717,false,Rx,1,8,11,00,82,FF,00,00,02,02,
148399104,00000719,false,Rx,1,8,10,FE,0F,00,17,00,00,00,
148399344,0000071B,false,Rx,1,8,0F,00,CD,01,3B,22,00,00,
148405810,00000217,false,Rx,1,8,00,00,7F,00,80,02,00,04,
148406364,00000219,false,Rx,1,8,00,C0,7F,00,83,02,00,04,
148407175,0000021B,false,Rx,1,8,00,80,00,00,7F,02,00,04,
148438707,0000045C,false,Rx,1,8,00,00,09,3E,00,00,00,00,
148457130,0000042C,false,Rx,1,8,00,60,00,00,20,00,00,00,
148457376,0000043C,false,Rx,1,8,00,60,00,00,20,00,00,00,
148457623,0000044C,false,Rx,1,8,00,60,00,00,20,00,00,00,
148495971,00000207,false,Rx,1,8,00,00,C0,FF,68,01,14,00,
148496211,00000227,false,Rx,1,8,08,04,A4,00,06,00,3A,B8,
148496458,00000237,false,Rx,1,8,3D,41,00,17,00,00,00,00,
148496699,00000209,false,Rx,1,8,00,00,C0,FF,68,01,14,00,
148496933,00000229,false,Rx,1,8,18,04,8F,00,08,00,3A,B8,
148497180,00000239,false,Rx,1,8,3E,41,00,17,00,00,00,00,
148497427,0000020B,false,Rx,1,8,00,00,00,00,68,01,14,00,
148497660,0000022B,false,Rx,1,8,DD,03,8B,00,0F,00,3A,B8,
148497902,0000023B,false,Rx,1,8,3D,41,00,17,00,00,00,00,
148498141,00000247,false,Rx,1,8,66,7D,89,03,00,00,26,00,
148498373,00000249,false,Rx,1,8,66,7D,89,03,00,00,26,00,
148498607,0000024B,false,Rx,1,8,66,7D,89,03,00,00,26,00,
148498848,00000717,false,Rx,1,8,12,40,29,00,27,00,27,00,
148499088,00000719,false,Rx,1,8,11,00,94,FF,00,00,02,02,
148499329,0000071B,false,Rx,1,8,10,05,00,00,15,00,00,00,
148505764,00000217,false,Rx,1,8,00,00,7F,00,80,02,00,04,
148506363,00000219,false,Rx,1,8,00,C0,7F,00,83,02,00,04,
148507143,0000021B,false,Rx,1,8,00,80,00,00,7F,02,00,04,
148538707,0000045C,false,Rx,1,8,00,00,09,3E,00,00,00,00,
148538834,0000010C,false,Rx,1,2,22,00,00,00,00,00,00,00,
148538983,00000547,false,Rx,1,2,22,FF,00,00,00,00,00,00,
148539116,00000549,false,Rx,1,2,22,FF,00,00,00,00,00,00,
148539244,0000054B,false,Rx,1,2,22,FF,00,00,00,00,00,00,
148557130,0000042C,false,Rx,1,8,00,60,00,00,20,00,00,00,
148557377,0000043C,false,Rx,1,8,00,60,00,00,20,00,00,00,
148557625,0000044C,false,Rx,1,8,00,60,00,00,20,00,00,00,
148595966,00000207,false,Rx,1,8,00,00,00,00,68,01,14,00,
148596198,00000227,false,Rx,1,8,10,04,A3,00,13,00,3A,B8,
148596445,00000237,false,Rx,1,8,3D,41,00,17,00,00,00,00,
148596686,00000209,false,Rx,1,8,00,00,C0,FF,68,01,14,00,
148596920,00000229,false,Rx,1,8,26,04,87,00,0D,00,3A,B8,
148597167,00000239,false,Rx,1,8,3E,41,00,17,00,00,00,00,
148597407,0000020B,false,Rx,1,8,00,00,C0,FF,68,01,14,00,
148597641,0000022B,false,Rx,1,8,EE,03,88,00,05,00,3A,B8,
148597889,0000023B,false,Rx,1,8,3D,41,00,17,00,00,00,00,
148598120,00000247,false,Rx,1,8,66,7D,89,03,00,00,26,00,
148598361,00000249,false,Rx,1,8,66,7D,89,03,00,00,26,00,
148598594,0000024B,false,Rx,1,8,66,7D,89,03,00,00,26,00,
148598842,00000717,false,Rx,1,8,13,00,00,00,00,00,00,00,
148599083,00000719,false,Rx,1,8,12,40,26,00,27,00,26,00,
148599323,0000071B,false,Rx,1,8,11,00,99,FF,00,00,02,02,
148605759,00000217,false,Rx,1,8,00,00,7F,00,80,02,00,04,
148606321,00000219,false,Rx,1,8,00,C0,7F,00,83,02,00,04,
148607146,0000021B,false,Rx,1,8,00,80,00,00,7F,02,00,04,
148638699,0000045C,false,Rx,1,8,00,00,09,3E,00,00,00,00,
148657129,0000042C,false,Rx,1,8,00,60,00,00,20,00,00,00,
148657375,0000043C,false,Rx,1,8,00,60,00,00,20,00,00,00,
148657624,0000044C,false,Rx,1,8,00,60,00,00,20,00,00,00,
148695917,00000207,false,Rx,1,8,00,00,00,00,68,01,14,00,
148696155,00000227,false,Rx,1,8,13,04,A8,00,0E,00,3A,B8,
148696403,00000237,false,Rx,1,8,3D,41,00,17,00,00,00,00,
148696651,00000209,false,Rx,1,8,00,00,00,00,68,01,14,00,
148696886,00000229,false,Rx,1,8,32,04,85,00,04,00,3A,B8,
148697133,00000239,false,Rx,1,8,3E,41,00,17,00,00,00,00,
148697382,0000020B,false,Rx,1,8,00,00,00,00,68,01,14,00,
148697614,0000022B,false,Rx,1,8,F1,03,8B,00,06,00,3A,B8,
148697863,0000023B,false,Rx,1,8,3D,41,00,17,00,00,00,00,
148698094,00000247,false,Rx,1,8,66,7D,89,03,00,00,26,00,
148698328,00000249,false,Rx,1,8,66,7D,89,03,00,00,26,00,
148698567,0000024B,false,Rx,1,8,66,7D,89,03,00,00,26,00,
148698808,00000717,false,Rx,1,8,14,00,00,00,1D,00,00,00,
148699057,00000719,false,Rx,1,8,13,00,00,00,00,00,00,00,
148699297,0000071B,false,Rx,1,8,12,40,29,00,27,00,25,00,
148705711,00000217,false,Rx,1,8,00,00,7F,00,80,02,00,04,
148706325,00000219,false,Rx,1,8,00,C0,7F,00,83,02,00,04,
148707106,0000021B,false,Rx,1,8,00,80,00,00,7F,02,00,04,
148738704,0000045C,false,Rx,1,8,00,00,09,3E,00,00,00,00,
148738832,0000010C,false,Rx,1,2,23,00,00,00,00,00,00,00,
148738988,0000054B,false,Rx,1,2,23,FF,00,00,00,00,00,00,
148739114,00000547,false,Rx,1,2,23,FF,00,00,00,00,00,00,
148739248,00000549,false,Rx,1,2,23,FF,00,00,00,00,00,00,
148757127,0000042C,false,Rx,1,8,00,60,00,00,20,00,00,00,
148757374,0000043C,false,Rx,1,8,00,60,00,00,20,00,00,00,
148757621,0000044C,false,Rx,1,8,00,60,00,00,20,00,00,00,
148795883,00000207,false,Rx,1,8,00,00,C0,FF,68,01,14,00,
148796122,00000227,false,Rx,1,8,1A,04,A2,00,0B,00,3A,B8,
148796370,00000237,false,Rx,1,8,3D,41,00,17,00,00,00,00,
148796610,00000209,false,Rx,1,8,00,00,C0,FF,68,01,14,00,
148796844,00000229,false,Rx,1,8,34,04,8D,00,0E,00,3A,B8,
148797084,00000239,false,Rx,1,8,3E,41,00,17,00,00,00,00,
148797332,0000020B,false,Rx,1,8,00,00,00,00,68,01,14,00,
148797572,0000022B,false,Rx,1,8,02,04,8E,00,10,00,3A,B8,
148797821,0000023B,false,Rx,1,8,3D,41,00,17,00,00,00,00,
